 ****** HSPICE  --  A-2007.09  32-BIT    (Aug 28 2007) 11:18:24 06/29/2018 winnt
  Copyright (C) 2007 Synopsys, Inc. All Rights Reserved.                        
  Unpublished-rights reserved under US copyright laws.
  This program is protected by law and is subject to the 
  terms and conditions of the license agreement found in:
    C:\synopsys\Hspice_A-2007.09\license.txt
  Use of this program is your acceptance to be bound by this 
  license agreement. HSPICE is the trademark of Synopsys, Inc.
  Input File: c:\users\zichen fan\desktop\fully-differential-ota-design-master\g
  lic:  
  lic: FLEXlm: v8.5b 
  lic: USER:   Zichen Fan           HOSTNAME: DESKTOP-ID3NFN2 
  lic: HOSTID: "44a842e8ae10 34e6ad493279 34e6ad493275 34e6ad493276" PID:      1
 8
  lic: Using FLEXlm license file: 
  lic: C:\synopsys\Hspice_A-2007.09\hspice_2007-09.lic 
  lic: Checkout 1 hspice;  Encryption code: AD47C1C891DA5D596A45 
  lic: License/Maintenance for hspice will expire on 31-dec-2020/2007.9 
  lic: NODE LOCKED license on hostid "44a842e8ae10 34e6ad493279 34e6ad493275 34e
 6
  lic:   
 Init: read install configuration file: C:\synopsys\Hspice_A-2007.09\meta.cfg
 Init: hspice initialization file: C:\synopsys\Hspice_A-2007.09\hspice.ini





 .option post brief
  **warning** (ee214_hspice.txt:47)   model pch214 is not used in netlist
 

 ****** HSPICE  --  A-2007.09  32-BIT    (Aug 28 2007) 11:18:24 06/29/2018 winnt
 ******  
 tran loop analysis                                                             
  ******  operating point information      tnom=  25.000 temp=  25.000          
 ******  
 ***** operating point status is all       simulation time is     0.     
    node    =voltage      node    =voltage

 +0:d       =   2.0000  0:g       = 588.8770m


 ****  voltage sources

 subckt                        
 element  0:vg       0:vd      
  volts    588.8770m    2.0000 
  current    0.        -5.4323u
  power      0.        10.8646u

     total voltage source power dissipation=   10.8646u       watts




 **** mosfets


 subckt             
 element  0:mn1     
 model    0:nch214  
 region     Saturati
  id         5.4323u
  ibs        0.     
  ibd        0.     
  vgs      588.8770m
  vds        2.0000 
  vbs        0.     
  vth      588.8770m
  vdsat     57.3468m
  vod      926.2687p
  beta       5.7436m
  gam eff  894.1238m
  gm       115.0388u
  gds        1.1629u
  gmb       31.6481u
  cdtot     12.8307f
  cgtot     14.8487f
  cstot     29.4764f
  cbtot     35.9414f
  cgs        8.0444f
  cgd        2.3288f




          ***** job concluded
 ****** HSPICE  --  A-2007.09  32-BIT    (Aug 28 2007) 11:18:24 06/29/2018 winnt
 ******  
 tran loop analysis                                                             
  ******  job statistics summary           tnom=  25.000 temp=  25.000          
 ******  

           total memory used        158 kbytes

  # nodes =       3 # elements=       3
  # diodes=       0 # bjts    =       0 # jfets   =       0 # mosfets =       1
  # va device =       0

    analysis           time    # points   tot. iter  conv.iter

    op point           0.01           1           3
    dc sweep           0.00         192         385
    readin             0.01
    errchk             0.00
    setup              0.00
    output             0.00
           total cpu time          0.07 seconds
               job started at  11:18:24 06/29/2018
               job ended   at  11:18:24 06/29/2018


 Init: hspice initialization file: C:\synopsys\Hspice_A-2007.09\hspice.ini
  lic: Release hspice token(s) 
