 ****** HSPICE  --  A-2007.09  32-BIT    (Aug 28 2007) 11:06:09 06/29/2018 winnt
  Copyright (C) 2007 Synopsys, Inc. All Rights Reserved.                        
  Unpublished-rights reserved under US copyright laws.
  This program is protected by law and is subject to the 
  terms and conditions of the license agreement found in:
    C:\synopsys\Hspice_A-2007.09\license.txt
  Use of this program is your acceptance to be bound by this 
  license agreement. HSPICE is the trademark of Synopsys, Inc.
  Input File: c:\users\zichen fan\desktop\fully-differential-ota-design-master\g
  lic:  
  lic: FLEXlm: v8.5b 
  lic: USER:   Zichen Fan           HOSTNAME: DESKTOP-ID3NFN2 
  lic: HOSTID: "44a842e8ae10 34e6ad493279 34e6ad493275 34e6ad493276" PID:      9
 5
  lic: Using FLEXlm license file: 
  lic: C:\synopsys\Hspice_A-2007.09\hspice_2007-09.lic 
  lic: Checkout 1 hspice;  Encryption code: AD47C1C891DA5D596A45 
  lic: License/Maintenance for hspice will expire on 31-dec-2020/2007.9 
  lic: NODE LOCKED license on hostid "44a842e8ae10 34e6ad493279 34e6ad493275 34e
 6
  lic:   
 Init: read install configuration file: C:\synopsys\Hspice_A-2007.09\meta.cfg
 Init: hspice initialization file: C:\synopsys\Hspice_A-2007.09\hspice.ini





 .option post brief
  **warning** (ee214_hspice.txt:11)   model nch214 is not used in netlist
 


 **warning** the following singular supplies were terminated to 1 meg resistor 
   supply       node1            node2
  vdd                     0:vdd              defined in subckt 0                     0:0                defined in subckt 0               
 ****** HSPICE  --  A-2007.09  32-BIT    (Aug 28 2007) 11:06:09 06/29/2018 winnt
 ******  
 tran loop analysis                                                             
  ******  operating point information      tnom=  25.000 temp=  25.000          
 ******  
 ***** operating point status is all       simulation time is     0.     
    node    =voltage      node    =voltage      node    =voltage

 +0:d       = 500.0000m 0:g       =   2.0947  0:vdd     =   3.0000 


 ****  voltage sources

 subckt                                   
 element  0:vdd      0:vgs      0:vds     
  volts      3.0000  -905.2867m   -2.5000 
  current   -3.0000u    0.         4.1634u
  power      9.0000u    0.        10.4085u

     total voltage source power dissipation=   19.4085u       watts




 **** mosfets


 subckt             
 element  0:mp1     
 model    0:pch214  
 region     Saturati
  id        -4.1634u
  ibs        0.     
  ibd        0.     
  vgs     -905.2867m
  vds       -2.5000 
  vbs        0.     
  vth     -805.2867m
  vdsat   -143.6186m
  vod     -100.0000m
  beta     478.9776u
  gam eff  472.5709m
  gm        50.9945u
  gds       57.2074n
  gmb       14.0105u
  cdtot     16.2757f
  cgtot     47.8516f
  cstot     68.4437f
  cbtot     46.2463f
  cgs       39.2185f
  cgd        4.7530f




          ***** job concluded
 ****** HSPICE  --  A-2007.09  32-BIT    (Aug 28 2007) 11:06:09 06/29/2018 winnt
 ******  
 tran loop analysis                                                             
  ******  job statistics summary           tnom=  25.000 temp=  25.000          
 ******  

           total memory used        159 kbytes

  # nodes =       4 # elements=       5
  # diodes=       0 # bjts    =       0 # jfets   =       0 # mosfets =       1
  # va device =       0

    analysis           time    # points   tot. iter  conv.iter

    op point           0.01           1           4
    dc sweep           0.00         170         342
    readin             0.01
    errchk             0.00
    setup              0.00
    output             0.00
           total cpu time          0.04 seconds
               job started at  11:06:09 06/29/2018
               job ended   at  11:06:09 06/29/2018


 Init: hspice initialization file: C:\synopsys\Hspice_A-2007.09\hspice.ini
  lic: Release hspice token(s) 
