 ****** HSPICE  --  A-2007.09  32-BIT    (Aug 28 2007) 21:48:47 06/16/2018 winnt
  Copyright (C) 2007 Synopsys, Inc. All Rights Reserved.                        
  Unpublished-rights reserved under US copyright laws.
  This program is protected by law and is subject to the 
  terms and conditions of the license agreement found in:
    C:\synopsys\Hspice_A-2007.09\license.txt
  Use of this program is your acceptance to be bound by this 
  license agreement. HSPICE is the trademark of Synopsys, Inc.
  Input File: c:\users\zichen fan\desktop\gmidft\nmos\gmidft-nmos.sp            
  lic:  
  lic: FLEXlm: v8.5b 
  lic: USER:   Zichen Fan           HOSTNAME: DESKTOP-V3SQE64 
  lic: HOSTID: "985fd3462180 0205857feb80 985fd346217f 9a5fd346207e 9a5fd346257e
 "
  lic: Using FLEXlm license file: 
  lic: C:\synopsys\Hspice_A-2007.09\hspice_2007-09.lic 
  lic: Checkout 1 hspice;  Encryption code: AD47C1C891DA5D596A45 
  lic: License/Maintenance for hspice will expire on 31-dec-2020/2007.9 
  lic: NODE LOCKED license on hostid "985fd3462180 0205857feb80 985fd346217f 9a5
 f
  lic:   
 Init: read install configuration file: C:\synopsys\Hspice_A-2007.09\meta.cfg
 Init: hspice initialization file: C:\synopsys\Hspice_A-2007.09\hspice.ini





 .option post brief dccap
  **warning** (ee214_hspice.txt:47)   model pch214 is not used in netlist
 

 ****** HSPICE  --  A-2007.09  32-BIT    (Aug 28 2007) 21:48:47 06/16/2018 winnt
 ******  
 *****                                                                          
  ******  operating point information      tnom=  25.000 temp=  25.000          
 ******  
 ***** operating point status is all       simulation time is     0.     
    node    =voltage      node    =voltage

 +0:d       =   2.0000  0:g       = 670.8395m


 ****  voltage sources

 subckt                        
 element  0:vg       0:vd      
  volts    670.8395m    2.0000 
  current    0.       -19.6585u
  power      0.        39.3170u

     total voltage source power dissipation=   39.3170u       watts




 **** mosfets


 subckt             
 element  0:mn1     
 model    0:nch214  
 region     Saturati
  id        19.6585u
  ibs        0.     
  ibd        0.     
  vgs      670.8395m
  vds        2.0000 
  vbs        0.     
  vth      595.2697m
  vdsat     89.1121m
  vod       75.5698m
  beta       5.0101m
  gam eff  894.1238m
  gm       327.2510u
  gds        2.0798u
  gmb       95.8873u
  cdtot     12.8307f
  cgtot     20.4447f
  cstot     37.6531f
  cbtot     37.0172f
  cgs       14.6302f
  cgd        2.3328f




          ***** job concluded
 ****** HSPICE  --  A-2007.09  32-BIT    (Aug 28 2007) 21:48:47 06/16/2018 winnt
 ******  
 *****                                                                          
  ******  job statistics summary           tnom=  25.000 temp=  25.000          
 ******  

           total memory used        158 kbytes

  # nodes =       3 # elements=       3
  # diodes=       0 # bjts    =       0 # jfets   =       0 # mosfets =       1
  # va device =       0

    analysis           time    # points   tot. iter  conv.iter

    op point           0.02           1           3
    dc sweep           0.00         183         367
    readin             0.01
    errchk             0.00
    setup              0.01
    output             0.00
           total cpu time          0.16 seconds
               job started at  21:48:47 06/16/2018
               job ended   at  21:48:47 06/16/2018


 Init: hspice initialization file: C:\synopsys\Hspice_A-2007.09\hspice.ini
  lic: Release hspice token(s) 
