 ****** HSPICE  --  A-2007.09  32-BIT    (Aug 28 2007) 22:27:25 06/16/2018 winnt
  Copyright (C) 2007 Synopsys, Inc. All Rights Reserved.                        
  Unpublished-rights reserved under US copyright laws.
  This program is protected by law and is subject to the 
  terms and conditions of the license agreement found in:
    C:\synopsys\Hspice_A-2007.09\license.txt
  Use of this program is your acceptance to be bound by this 
  license agreement. HSPICE is the trademark of Synopsys, Inc.
  Input File: d:\seafile\大三下学期\模拟集成电路\project_twostageota\ota_test.sp
  lic:  
  lic: FLEXlm: v8.5b 
  lic: USER:   Zichen Fan           HOSTNAME: DESKTOP-V3SQE64 
  lic: HOSTID: "985fd3462180 0205857feb80 985fd346217f 9a5fd346207e 9a5fd346257e
 "
  lic: Using FLEXlm license file: 
  lic: C:\synopsys\Hspice_A-2007.09\hspice_2007-09.lic 
  lic: Checkout 1 hspice;  Encryption code: AD47C1C891DA5D596A45 
  lic: License/Maintenance for hspice will expire on 31-dec-2020/2007.9 
  lic: NODE LOCKED license on hostid "985fd3462180 0205857feb80 985fd346217f 9a5
 f
  lic:   
 Init: read install configuration file: C:\synopsys\Hspice_A-2007.09\meta.cfg
 Init: hspice initialization file: C:\synopsys\Hspice_A-2007.09\hspice.ini




 .subckt balun vdm vcm vp vm
 e1 vp vcm transformer vdm 0 2
 e2 vcm vm transformer vdm 0 2
 .ends balun

 .subckt diffsense vd vc vp vm
 e1 vminv  0 vm 0      -1
 e2 vc     0 vp vminv  0.5
 e3 vd     0 vp vm     1
 * these resistors help suppress "singular node" warnings
 rdum1 vd  0   1gig
 rdum2 vc  0   1gig
 .ends diffsense

 .subckt diffdrive vp vm vd vc
 e1 vp vc vd 0  0.5
 e2 vm vc vd 0  -0.5
 .ends diffdrive

 .subckt looptest x y ai=0 av=0
 vx middle x  dc 0
 vy middle y  ac 'av'
 it 0 middle  ac 'ai'
 .ends looptest

 .subckt difflooptest xp xm yp ym ai=0 av=0
 vxp middlep xp  dc 0
 vyp middlep yp  ac 'av'
 vxm middlem xm  ac 'av'
 vym middlem ym  dc 0
 it  middlem middlep  ac 'ai'
 .ends difflooptest
 * ee214 design project
 * name 1: joe example
 * name 2: john doe

 ******************************************************
 *test parameters (will be used by testbench ota_test.sp
 ******************************************************
 * capacitor sizes
 .param cs=4p
 .param cl=2p

 * input common mode
 .param input_common=1

 * differential input voltage step
 .param input_diff=1
 ******************************************************


 ******************************************************
 *circuit description
 ******************************************************
 .subckt ota vip vim vop vom vdd

 ib  vdd vbn  22m

 m1a v1m vip  vx  vx  pch214 w=3000u  l=0.7u
 m1b v1p vim  vx  vx  pch214 w=3000u  l=0.7u
 cna v1m vim  7.5f
 cnb v1p vip  7.5f

 m2a vom v1p  0   0 nch214 w=2000u  l=0.45u
 m2b vop v1m  0   0 nch214 w=2000u  l=0.45u

 m3d vbn vbn  0   0 nch214 w=3000u  l=0.45u
 m3c vbp vbn  0   0 nch214 w=3000u  l=0.45u  
 m3b v1m vbn  0   0 nch214 w=3000u  l=0.45u  
 m3a v1p vbn  0   0 nch214 w=3000u  l=0.45u  

 m4d vbp vbp  vdd  vdd  pch214 w=500u  l=0.55u
 m4c vx  vbp  vdd  vdd  pch214 w=500u  l=0.55u 
 m4b vom vbp  vdd  vdd  pch214 w=500u  l=0.55u 
 m4a vop vbp  vdd  vdd  pch214 w=500u  l=0.55u 

 cca vzp v1m  9.25p
 ccb vzm v1p  9.25p

 .param gm2=2.1918m
 rza vzp vop  '1/gm2'
 rzb vzm vom  '1/gm2'

 x1 vid voc vop vom diffsense
 v1 vocdes 0 1.5
 g1 0 vx   voc vocdes 1m

 .ends

 * ee214 cmos transistor models in hspice format
 * boris murmann 9/6/04
 * channel length  0.35um ... 15um (nmos)
 *		  0.35um ... 15um (pmos)
 * channel width	  >= 1um
 * nominal parameter values:
 * threshold	  0.60v  (nmos)
 *		  0.85v  (pmos)
 * oxide thickness 6.5nm

 .model nch214 nmos level = 49
 + version =  3.11          acm     =  3             hdif    =  0.5e-6
 + mobmod  =  1.000000e+00  capmod  =  1.000000e+00  nqsmod  =  0.000000e+00  
 + tox     =  6.500000e-09  cdsc    =  1.000000e-10  cdscb   =  0.000000e+00  
 + cdscd   =  3.146578e-03  cit     = -1.165567e-03  nfactor =  2.067847e+00  
 + xj      =  2.000000e-07  vsat    =  1.733115e+05  at      =  4.587946e+04  
 + a0      =  1.208623e+00  ags     =  2.664144e-01  a1      =  0.000000e+00  
 + a2      =  3.926521e-01  keta    = -5.969015e-03  nch     =  3.053200e+17  
 + k1      =  7.823191e-01  kt1     = -2.968857e-01  kt1l    =  6.948321e-09  
 + kt2     = -2.439718e-02  k2      = -5.976393e-02  k3      = -2.348052e+00  
 + k3b     = -2.995700e+00  w0      =  0.000000e+00  nlx     =  2.343014e-07  
 + dvt0    =  1.904429e+01  dvt1    =  8.095353e-01  dvt2    =  6.252991e-03  
 + dvt0w   =  0.000000e+00  dvt1w   =  0.000000e+00  dvt2w   =  0.000000e+00  
 + drout   =  5.600000e-01  dsub    =  5.891755e-01  vth0    =  4.452273e-01  
 + ua      = -1.085785e-09  ua1     =  2.451017e-09  ub      =  2.210053e-18  
 + ub1     = -2.617479e-18  uc      =  3.755569e-11  uc1     =  2.640885e-13  
 + u0      =  3.324764e-02  ute     = -1.230449e+00  voff    = -8.793706e-02  
 + delta   =  9.688553e-03  rdsw    =  4.385596e+02  prwg    =  1.000000e-01  
 + prwb    = -7.964250e-02  prt     = -4.162666e+01  eta0    =  1.722893e-01  
 + etab    = -5.113721e-02  pclm    =  9.585992e-01  pdiblc1 =  2.537726e-12  
 + pdiblc2 = -3.312959e-04  pdiblcb = -1.000000e-03  pscbe1  =  5.656369e+08  
 + pscbe2  =  1.000000e-03  pvag    =  1.000001e-12  wr      =  9.107508e-01  
 + dwg     = -7.427878e-09  dwb     = -3.328336e-09  b0      =  1.598826e-07  
 + b1      =  5.141988e-17  alpha0  =  0.000000e+00  beta0   =  3.000000e+01  
 + elm     =  5.000000e+00  cgsl    =  0.000000e+00  cgdl    =  0.000000e+00  
 + ckappa  =  6.000000e-01  cf      =  9.056200e-11  clc     =  1.000000e-07  
 + cle     =  6.000000e-01  tnom    =  2.500000e+01  cgso    =  1.590000e-10  
 + cgdo    =  1.590000e-10  cgbo    =  0.000000e+00  xpart   =  1.000000e+00  
 + rsh     =  0.000000e+00  pb      =  5.112000e-01  mj      =  3.872000e-01  
 + mjsw    =  3.872000e-01  pbsw    =  5.112000e-01  cj      =  8.488000e-04  
 + cjsw    =  4.896000e-10  lint    =  2.345145e-09  ll      =  1.382235e-09  
 + lln     =  2.000000e-01  lw      =  0.000000e+00  lwn     =  0.000000e+00  
 + lwl     =  0.000000e+00  wint    =  1.347400e-07  wl      =  0.000000e+00  
 + wln     =  1.000000e+00  ww      = -7.781819e-14  wwn     =  1.000000e+00  
 + wwl     =  0.000000e+00  nlev    =  2.000000e+00  kf      =  0.500000e-25


 .model pch214 pmos level = 49
 + version =  3.11          acm     =  3             hdif    =  0.5e-6
 + mobmod  =  1.000000e+00  capmod  =  1.000000e+00  nqsmod  =  0.000000e+00  
 + tox     =  6.500000e-09  cdsc    =  1.000000e-10  cdscb   =  0.000000e+00  
 + cdscd   =  0.000000e+00  cit     =  2.849258e-03  nfactor =  0.000000e+00  
 + xj      =  2.000000e-07  vsat    =  1.235253e+05  at      =  0.000000e+00  
 + a0      =  5.534111e-01  ags     =  0.000000e+00  a1      =  0.000000e+00  
 + a2      =  4.000000e-01  keta    = -4.742392e-03  nch     =  1.198869e+17  
 + k1      =  5.036882e-01  kt1     = -4.972940e-01  kt1l    =  0.000000e+00  
 + kt2     = -4.796538e-02  k2      =  1.710970e-02  k3      = -1.532555e+00  
 + k3b     = -1.426295e-01  w0      = -5.128171e-07  nlx     =  1.500000e-07  
 + dvt0    =  1.318457e+00  dvt1    =  2.383284e-01  dvt2    =  0.000000e+00  
 + dvt0w   =  0.000000e+00  dvt1w   =  0.000000e+00  dvt2w   =  0.000000e+00  
 + drout   =  3.972895e-01  dsub    =  4.287821e-01  vth0    = -7.891688e-01  
 + ua      = -7.838913e-10  ua1     =  4.158887e-09  ub      =  1.416209e-18  
 + ub1     = -3.635865e-18  uc      = -3.193134e-11  uc1     =  0.000000e+00  
 + u0      =  8.644306e-03  ute     =  0.000000e+00  voff    = -1.619864e-01  
 + delta   =  1.000000e-02  rdsw    =  1.393589e+03  prwg    = -7.131702e-02  
 + prwb    = -9.573077e-02  prt     =  0.000000e+00  eta0    =  5.324062e-02  
 + etab    =  0.000000e+00  pclm    =  1.294956e+00  pdiblc1 =  1.272241e-02  
 + pdiblc2 =  5.045117e-04  pdiblcb = -8.715370e-03  pscbe1  =  4.803844e+08  
 + pscbe2  =  1.000000e-08  pvag    =  0.000000e+00  wr      =  8.585317e-01  
 + dwg     = -1.637238e-08  dwb     = -3.444345e-09  b0      =  0.000000e+00  
 + b1      =  1.000000e-04  alpha0  =  0.000000e+00  beta0   =  3.000000e+01  
 + elm     =  5.000000e+00  cgsl    =  0.000000e+00  cgdl    =  0.000000e+00  
 + ckappa  =  6.000000e-01  cf      =  9.056200e-11  clc     =  1.000000e-07  
 + cle     =  6.000000e-01  tnom    =  2.500000e+01  cgso    =  4.035600e-10  
 + cgdo    =  4.035600e-10  cgbo    =  0.000000e+00  xpart   =  1.000000e+00  
 + rsh     =  0.000000e+00  pb      =  9.316000e-01  mj      =  4.845000e-01  
 + mjsw    =  4.845000e-01  pbsw    =  9.316000e-01  cj      =  1.117000e-03  
 + cjsw    =  4.764000e-10  lint    =  5.034766e-08  ll      =  4.395297e-17  
 + lln     =  1.370692e+00  lw      =  0.000000e+00  lwn     =  0.000000e+00  
 + lwl     =  0.000000e+00  wint    =  1.924185e-07  wl      =  0.000000e+00  
 + wln     =  1.000000e+00  ww      = -9.207185e-13  wwn     =  8.342567e-01  
 + wwl     =  0.000000e+00  nlev    =  2.000000e+00  kf      =  0.250000e-25


 

  Opening plot unit= 79
 file=d:\seafile\大三下学期\模拟集成电路\project_twostageota\ota_test.pa0      

 ****** HSPICE  --  A-2007.09  32-BIT    (Aug 28 2007) 22:27:25 06/16/2018 winnt
 ******  
 * ee214 design project                                                         
  ******  operating point information      tnom=  25.000 temp=  25.000          
 ******  
 ***** operating point status is all       simulation time is     0.     
    node    =voltage      node    =voltage      node    =voltage

 +0:vdd     =   3.0000  0:voc     =   3.0000  0:vod     = 444.0892a
 +0:vom     =   3.0000  0:vomm    =   3.0000  0:vop     =   3.0000 
 +0:vopp    =   3.0000  0:vsc     =   1.0000  0:vsd     =   0.     
 +0:vsm     =   1.0000  0:vsp     =   1.0000  0:xm      =   1.0000 
 +0:xp      =   1.0000  0:ym      =   1.0000  0:yp      =   1.0000 
 +1:v1m     =  64.9858m 1:v1p     =  64.9858m 1:vbn     = 778.7394m
 +1:vbp     =   1.3092  1:vid     = 444.0892a 1:voc     =   3.0000 
 +1:vocdes  =   1.5000  1:vx      =   2.0470  1:vzm     =   3.0000 
 +1:vzp     =   3.0000  3:vminv   =  -3.0000  4:middlem =   1.0000 
 +4:middlep =   1.0000  5:vminv   =  -3.0000 


 ****  voltage sources

 subckt                                                          x1        
 element  0:vdd      0:vsc      0:vmp      0:vmm      0:vsd      1:v1      
  volts      3.0000     1.0000     0.         0.         0.         1.5000 
  current  -66.0704m    0.         0.         0.         0.         0.     
  power    198.2111m    0.         0.         0.         0.         0.     

 subckt   xt         xt         xt         xt        
 element  4:vxp      4:vyp      4:vxm      4:vym     
  volts      0.         0.         0.         0.     
  current    0.         0.         0.         0.     
  power      0.         0.         0.         0.     

     total voltage source power dissipation=  198.2111m       watts



 ***** current sources

 subckt   x1         xt        
 element  1:ib       4:it      
  volts      2.2213     0.     
  current   22.0000m    0.     
  power    -48.8677m    0.     


     total current source power dissipation= -48.8677m       watts

 **** resistors

 subckt                         x1         x1         xs         xs        
 element  0:rs1      0:rs2      1:rza      1:rzb      3:rdum1    3:rdum2   
  r value   10.0000g   10.0000g  456.2460   456.2460     1.0000g    1.0000g
  v drop     0.         0.         0.         0.       444.0892a    3.0000 
  current    0.         0.         0.         0.       4.441e-25    3.0000n
  power      0.         0.         0.         0.         0.         9.0000n

 subckt   x1.x1      x1.x1     
 element  5:rdum1    5:rdum2   
  r value    1.0000g    1.0000g
  v drop   444.0892a    3.0000 
  current  4.441e-25    3.0000n
  power      0.         9.0000n


 **** voltage-controlled current sources


 subckt     x1      
 element  1:g1      
  v drop    -2.0470 
  current    1.5000m




 **** voltage-controlled voltage sources


 subckt     xd         xd         xs         xs         xs         x1.x1   
 element  2:e1       2:e2       3:e1       3:e2       3:e3       5:e1      
  volts      0.         0.        -3.0000     3.0000   444.0892a   -3.0000 
  current    0.         0.         0.        -3.0000n -4.441e-25    0.     



 subckt     x1.x1      x1.x1   
 element  5:e2       5:e3      
  volts      3.0000   444.0892a
  current   -3.0000n -4.441e-25





 **** mosfets


 subckt   x1         x1         x1         x1         x1         x1        
 element  1:m1a      1:m1b      1:m2a      1:m2b      1:m3d      1:m3c     
 model    0:pch214   0:pch214   0:nch214   0:nch214   0:nch214   0:nch214  
 region     Saturati   Saturati     Cutoff     Cutoff   Saturati   Saturati
  id       -11.3124m  -11.3124m    1.6873n    1.6873n   22.0000m   22.9456m
  ibs        0.         0.         0.         0.         0.         0.     
  ibd        0.         0.         0.         0.         0.         0.     
  vgs       -1.0470    -1.0470    64.9858m   64.9858m  778.7394m  778.7394m
  vds       -1.9820    -1.9820     3.0000     3.0000   778.7394m    1.3092 
  vbs        0.         0.         0.         0.         0.         0.     
  vth     -774.0038m -774.0038m  590.2873m  590.2873m  604.3854m  601.0190m
  vdsat   -280.5697m -280.5697m   37.7675m   37.7675m  148.3689m  150.3813m
  vod     -272.9504m -272.9504m -525.3014m -525.3014m  174.3541m  177.7204m
  beta     268.5768m  268.5768m    1.0240     1.0240     1.5475     1.5474 
  gam eff  472.5709m  472.5709m  894.1238m  894.1238m  894.1238m  894.1238m
  gm        71.8977m   71.8977m   44.9267n   44.9267n  223.4597m  229.8162m
  gds      434.9764u  434.9764u  715.5747p  715.5747p    2.0418m    1.6378m
  gmb       17.5631m   17.5631m   18.6061n   18.6061n   64.5325m   66.1112m
  cdtot      5.0565p    5.0565p    2.2332p    2.2332p    4.5815p    4.1029p
  cgtot     10.0759p   10.0759p    2.4714p    2.4714p    6.6462p    6.6485p
  cstot     15.3678p   15.3678p    4.1560p    4.1560p   11.7345p   11.7341p
  cbtot     12.0287p   12.0287p    7.0156p    7.0156p   11.5904p   11.1123p
  cgs        7.9228p    7.9228p  357.2430f  357.2430f    4.9856p    4.9841p
  cgd        1.4584p    1.4584p  489.7074f  489.7074f  715.9179f  715.9048f



 subckt   x1         x1         x1         x1         x1         x1        
 element  1:m3b      1:m3a      1:m4d      1:m4c      1:m4b      1:m4a     
 model    0:nch214   0:nch214   0:pch214   0:pch214   0:pch214   0:pch214  
 region       Linear     Linear   Saturati   Saturati     Linear     Linear
  id        11.3124m   11.3124m  -22.9456m  -21.1247m   -1.6933n   -1.6933n
  ibs        0.         0.         0.         0.         0.         0.     
  ibd        0.         0.         0.         0.         0.         0.     
  vgs      778.7394m  778.7394m   -1.6908    -1.6908    -1.6908    -1.6908 
  vds       64.9858m   64.9858m   -1.6908  -953.0458m  -40.6163n  -40.6163n
  vbs        0.         0.         0.         0.         0.         0.     
  vth      608.9148m  608.9148m -734.2629m -740.4131m -748.3584m -748.3584m
  vdsat    145.6612m  145.6612m -773.9070m -769.8808m -764.6704m -764.6704m
  vod      169.8247m  169.8247m -956.5208m -950.3705m -942.4252m -942.4252m
  beta       1.5477     1.5477    60.9868m   60.9693m   60.9464m   60.9464m
  gam eff  894.1238m  894.1238m  472.5709m  472.5709m  472.5709m  472.5709m
  gm        82.4866m   82.4866m   38.8121m   33.5411m    1.3155n    1.3155n
  gds      129.5961m  129.5961m    1.3366m    5.0445m   41.6896m   41.6896m
  gmb       24.5084m   24.5084m    8.3630m    7.3474m  330.2357p  330.2357p
  cdtot     10.5458p   10.5458p  874.2524f  983.1478f    2.5669p    2.5669p
  cgtot      7.3743p    7.3743p    1.3612p    1.3612p    1.5976p    1.5976p
  cstot     12.3505p   12.3505p    2.1994p    2.1994p    2.3999p    2.3999p
  cbtot     13.1940p   13.1940p    1.9228p    2.0318p    2.3774p    2.3774p
  cgs        4.3371p    4.3371p    1.0367p    1.0366p  764.3355f  764.3355f
  cgd        2.3114p    2.3114p  239.6394f  239.6394f  789.5884f  789.5884f




          ***** job concluded
 ****** HSPICE  --  A-2007.09  32-BIT    (Aug 28 2007) 22:27:25 06/16/2018 winnt
 ******  
 * ee214 design project                                                         
  ******  job statistics summary           tnom=  25.000 temp=  25.000          
 ******  

           total memory used        322 kbytes

  # nodes =      30 # elements=      51
  # diodes=       0 # bjts    =       0 # jfets   =       0 # mosfets =      12
  # va device =       0

    analysis           time    # points   tot. iter  conv.iter

    op point           0.02           1          13
    ac analysis        0.07          71          71
    readin             0.02
    errchk             0.00
    setup              0.01
    output             0.00
           total cpu time          0.24 seconds
               job started at  22:27:25 06/16/2018
               job ended   at  22:27:26 06/16/2018


 ****** HSPICE  --  A-2007.09  32-BIT    (Aug 28 2007) 22:27:25 06/16/2018 winnt
 ******  
                                                                                
  ******    alter processing listing       tnom=  25.000 temp=  25.000          
 ******  
 $ end of alter processing $
  Opening plot unit= 79
 file=d:\seafile\大三下学期\模拟集成电路\project_twostageota\ota_test.pa1      

 ****** HSPICE  --  A-2007.09  32-BIT    (Aug 28 2007) 22:27:25 06/16/2018 winnt
 ******  
 * ee214 design project                                                         
  ******  operating point information      tnom=  25.000 temp=  25.000          
 ******  
 ***** operating point status is all       simulation time is     0.     
    node    =voltage      node    =voltage      node    =voltage

 +0:vdd     =   3.0000  0:voc     =   3.0000  0:vod     = 444.0892a
 +0:vom     =   3.0000  0:vomm    =   3.0000  0:vop     =   3.0000 
 +0:vopp    =   3.0000  0:vsc     =   1.0000  0:vsd     =   0.     
 +0:vsm     =   1.0000  0:vsp     =   1.0000  0:xm      =   1.0000 
 +0:xp      =   1.0000  0:ym      =   1.0000  0:yp      =   1.0000 
 +1:v1m     =  64.9858m 1:v1p     =  64.9858m 1:vbn     = 778.7394m
 +1:vbp     =   1.3092  1:vid     = 444.0892a 1:voc     =   3.0000 
 +1:vocdes  =   1.5000  1:vx      =   2.0470  1:vzm     =   3.0000 
 +1:vzp     =   3.0000  3:vminv   =  -3.0000  4:middlem =   1.0000 
 +4:middlep =   1.0000  5:vminv   =  -3.0000 


 ****  voltage sources

 subckt                                                          x1        
 element  0:vdd      0:vsc      0:vmp      0:vmm      0:vsd      1:v1      
  volts      3.0000     1.0000     0.         0.         0.         1.5000 
  current  -66.0704m    0.         0.         0.         0.         0.     
  power    198.2111m    0.         0.         0.         0.         0.     

 subckt   xt         xt         xt         xt        
 element  4:vxp      4:vyp      4:vxm      4:vym     
  volts      0.         0.         0.         0.     
  current    0.         0.         0.         0.     
  power      0.         0.         0.         0.     

     total voltage source power dissipation=  198.2111m       watts



 ***** current sources

 subckt   x1         xt        
 element  1:ib       4:it      
  volts      2.2213     0.     
  current   22.0000m    0.     
  power    -48.8677m    0.     


     total current source power dissipation= -48.8677m       watts

 **** resistors

 subckt                         x1         x1         xs         xs        
 element  0:rs1      0:rs2      1:rza      1:rzb      3:rdum1    3:rdum2   
  r value   10.0000g   10.0000g  456.2460   456.2460     1.0000g    1.0000g
  v drop     0.         0.         0.         0.       444.0892a    3.0000 
  current    0.         0.         0.         0.       4.441e-25    3.0000n
