 ****** HSPICE  --  A-2007.09  32-BIT    (Aug 28 2007) 22:20:46 06/16/2018 winnt
  Copyright (C) 2007 Synopsys, Inc. All Rights Reserved.                        
  Unpublished-rights reserved under US copyright laws.
  This program is protected by law and is subject to the 
  terms and conditions of the license agreement found in:
    C:\synopsys\Hspice_A-2007.09\license.txt
  Use of this program is your acceptance to be bound by this 
  license agreement. HSPICE is the trademark of Synopsys, Inc.
  Input File: c:\users\zichen fan\desktop\gmidft\pmos\gmidft-pmos.sp            
  lic:  
  lic: FLEXlm: v8.5b 
  lic: USER:   Zichen Fan           HOSTNAME: DESKTOP-V3SQE64 
  lic: HOSTID: "985fd3462180 0205857feb80 985fd346217f 9a5fd346207e 9a5fd346257e
 "
  lic: Using FLEXlm license file: 
  lic: C:\synopsys\Hspice_A-2007.09\hspice_2007-09.lic 
  lic: Checkout 1 hspice;  Encryption code: AD47C1C891DA5D596A45 
  lic: License/Maintenance for hspice will expire on 31-dec-2020/2007.9 
  lic: NODE LOCKED license on hostid "985fd3462180 0205857feb80 985fd346217f 9a5
 f
  lic:   
 Init: read install configuration file: C:\synopsys\Hspice_A-2007.09\meta.cfg
 Init: hspice initialization file: C:\synopsys\Hspice_A-2007.09\hspice.ini





 .option post brief dccap
  **warning** (ee214_hspice.txt:11)   model nch214 is not used in netlist
 


 **warning** the following singular supplies were terminated to 1 meg resistor 
   supply       node1            node2
  vdd                     0:vdd              defined in subckt 0                     0:0                defined in subckt 0               
 ****** HSPICE  --  A-2007.09  32-BIT    (Aug 28 2007) 22:20:46 06/16/2018 winnt
 ******  
 tran loop analysis                                                             
  ******  operating point information      tnom=  25.000 temp=  25.000          
 ******  
 ***** operating point status is all       simulation time is     0.     
    node    =voltage      node    =voltage      node    =voltage

 +0:d       =   1.5000  0:g       =   2.1253  0:vdd     =   3.0000 


 ****  voltage sources

 subckt                                   
 element  0:vdd      0:vgs      0:vds     
  volts      3.0000  -874.7170m   -1.5000 
  current   -3.0000u    0.         7.8552u
  power      9.0000u    0.        11.7829u

     total voltage source power dissipation=   20.7829u       watts




 **** mosfets


 subckt             
 element  0:mp1     
 model    0:pch214  
 region     Saturati
  id        -7.8552u
  ibs        0.     
  ibd        0.     
  vgs     -874.7170m
  vds       -1.5000 
  vbs        0.     
  vth     -774.7170m
  vdsat   -144.2600m
  vod     -100.0000m
  beta     863.0864u
  gam eff  472.5709m
  gm        95.5948u
  gds      553.3663n
  gmb       23.7476u
  cdtot     18.3665f
  cgtot     31.1942f
  cstot     49.2979f
  cbtot     42.4960f
  cgs       23.8789f
  cgd        4.6921f




          ***** job concluded
 ****** HSPICE  --  A-2007.09  32-BIT    (Aug 28 2007) 22:20:46 06/16/2018 winnt
 ******  
 tran loop analysis                                                             
  ******  job statistics summary           tnom=  25.000 temp=  25.000          
 ******  

           total memory used        158 kbytes

  # nodes =       4 # elements=       5
  # diodes=       0 # bjts    =       0 # jfets   =       0 # mosfets =       1
  # va device =       0

    analysis           time    # points   tot. iter  conv.iter

    op point           0.10           1           4
    dc sweep           0.00         123         248
    readin             0.01
    errchk             0.00
    setup              0.00
    output             0.00
           total cpu time          0.15 seconds
               job started at  22:20:46 06/16/2018
               job ended   at  22:20:46 06/16/2018


 Init: hspice initialization file: C:\synopsys\Hspice_A-2007.09\hspice.ini
  lic: Release hspice token(s) 
