 ****** HSPICE  --  A-2007.09  32-BIT    (Aug 28 2007) 10:54:10 06/17/2018 winnt
  Copyright (C) 2007 Synopsys, Inc. All Rights Reserved.                        
  Unpublished-rights reserved under US copyright laws.
  This program is protected by law and is subject to the 
  terms and conditions of the license agreement found in:
    C:\synopsys\Hspice_A-2007.09\license.txt
  Use of this program is your acceptance to be bound by this 
  license agreement. HSPICE is the trademark of Synopsys, Inc.
  Input File: d:\seafile\大三下学期\模拟集成电路\project_telescopic\ota_test.sp 
  lic:  
  lic: FLEXlm: v8.5b 
  lic: USER:   Zichen Fan           HOSTNAME: DESKTOP-V3SQE64 
  lic: HOSTID: "985fd3462180 0205857feb80 985fd346217f 9a5fd346207e 9a5fd346257e
 "
  lic: Using FLEXlm license file: 
  lic: C:\synopsys\Hspice_A-2007.09\hspice_2007-09.lic 
  lic: Checkout 1 hspice;  Encryption code: AD47C1C891DA5D596A45 
  lic: License/Maintenance for hspice will expire on 31-dec-2020/2007.9 
  lic: NODE LOCKED license on hostid "985fd3462180 0205857feb80 985fd346217f 9a5
 f
  lic:   
 Init: read install configuration file: C:\synopsys\Hspice_A-2007.09\meta.cfg
 Init: hspice initialization file: C:\synopsys\Hspice_A-2007.09\hspice.ini




 .subckt balun vdm vcm vp vm
 e1 vp vcm transformer vdm 0 2
 e2 vcm vm transformer vdm 0 2
 .ends balun

 .subckt diffsense vd vc vp vm
 e1 vminv  0 vm 0      -1
 e2 vc     0 vp vminv  0.5
 e3 vd     0 vp vm     1
 * these resistors help suppress "singular node" warnings
 rdum1 vd  0   1gig
 rdum2 vc  0   1gig
 .ends diffsense

 .subckt diffdrive vp vm vd vc
 e1 vp vc vd 0  0.5
 e2 vm vc vd 0  -0.5
 .ends diffdrive

 .subckt looptest x y ai=0 av=0
 vx middle x  dc 0
 vy middle y  ac 'av'
 it 0 middle  ac 'ai'
 .ends looptest

 .subckt difflooptest xp xm yp ym ai=0 av=0
 vxp middlep xp  dc 0
 vyp middlep yp  ac 'av'
 vxm middlem xm  ac 'av'
 vym middlem ym  dc 0
 it  middlem middlep  ac 'ai'
 .ends difflooptest
 * ee214 design project
 * name 1: joe example
 * name 2: john doe

 ******************************************************
 *test parameters (will be used by testbench ota_test.sp
 ******************************************************
 * capacitor sizes
 .param cs=4p
 .param cl=2p
 .param cf=2p
 * input common mode
 .param input_common=1.1

 * differential input voltage step
 .param input_diff=0.5
 ******************************************************


 ********************telescopic**********************
 ********************telescopic**********************

 .subckt ota vip vim vop vom vdd 

 *ib
 ib vdd pib 0.2m
 m01 pib pib 0 0 nch214 w=28um l=0.6um

 *2nd branch
 *mbb3 pa vbb1 vdd vdd pch214 w=140um l=0.7um
 mbb1 vbb1 vbb1 vdd vdd pch214 w=28um l=0.7um
 m02 vbb1 pib 0 0 nch214 w=28um l=0.6um m=5

 *3rd branch
 mc2 pb vbias vdd vdd pch214 w=28um l=0.7um m=5
 mc1 vbias vbb1 pb vdd pch214 w=28um l=0.7um m=5
 m03 vbias pib 0 0 nch214 w=28um l=0.6um m=5

 *4th branch
 m3 pc vbias vdd vdd pch214 w=28um l=0.7um m=5
 m3a vop vbb1 pc vdd pch214 w=28um l=0.7um m=5
 m1a vop vbb2 pf 0 nch214 w=28um l=0.4um m=10
 m1 pf vim p 0 nch214 w=28um l=0.4um m=5

 *5th branch
 mbb4 pd vbias vdd vdd pch214 w=28um l=0.7um m=2
 mbb2 vbb2 vbb1 pd vdd pch214 w=28um l=0.7um m=2
 mb2 vbb2 vbb2 ph 0 nch214 w=28um l=0.4um m=5
 mb1 ph vbb2 p 0 nch214 w=7um l=0.4um
 m0 p pib 0 0 nch214 w=28um l=0.6um m=12
 *vbb2 vbb2 0 0.6
 *vp p 0 0.3

 *6th branch
 m4 pe vbias vdd vdd pch214 w=28um l=0.7um m=5
 m4a vom vbb1 pe vdd pch214 w=28um l=0.7um m=5
 m2a vom vbb2 pg 0 nch214 w=28um l=0.4um m=10
 m2 pg vip p 0 nch214 w=28um l=0.4um m=5

 *2rd stage
 * m5 ps1 vbias vdd vdd pch214 w=140um l=0.7um
 * m5a vom vbb1 ps1 vdd pch214 w=140um l=0.7um
 * ms1 vom vom1 0 0 nch214 w=140um l=0.4um

 * m6 ps3 vbias vdd vdd pch214 w=140um l=0.7um
 * m6a vop vbb1 ps3 vdd pch214 w=140um l=0.7um
 * ms2 vop vop1 0 0 nch214 w=140um l=0.4um

 x1 vid voc vop vom diffsense
 v1 vocdes 0 1.5
 g1 0 p vocdes voc  50m

 * ee214 cmos transistor models in hspice format
 * boris murmann 9/6/04
 * channel length  0.35um ... 15um (nmos)
 *		  0.35um ... 15um (pmos)
 * channel width	  >= 1um
 * nominal parameter values:
 * threshold	  0.60v  (nmos)
 *		  0.85v  (pmos)
 * oxide thickness 6.5nm

 .model nch214 nmos level = 49
 + version =  3.11          acm     =  3             hdif    =  0.5e-6
 + mobmod  =  1.000000e+00  capmod  =  1.000000e+00  nqsmod  =  0.000000e+00  
 + tox     =  6.500000e-09  cdsc    =  1.000000e-10  cdscb   =  0.000000e+00  
 + cdscd   =  3.146578e-03  cit     = -1.165567e-03  nfactor =  2.067847e+00  
 + xj      =  2.000000e-07  vsat    =  1.733115e+05  at      =  4.587946e+04  
 + a0      =  1.208623e+00  ags     =  2.664144e-01  a1      =  0.000000e+00  
 + a2      =  3.926521e-01  keta    = -5.969015e-03  nch     =  3.053200e+17  
 + k1      =  7.823191e-01  kt1     = -2.968857e-01  kt1l    =  6.948321e-09  
 + kt2     = -2.439718e-02  k2      = -5.976393e-02  k3      = -2.348052e+00  
 + k3b     = -2.995700e+00  w0      =  0.000000e+00  nlx     =  2.343014e-07  
 + dvt0    =  1.904429e+01  dvt1    =  8.095353e-01  dvt2    =  6.252991e-03  
 + dvt0w   =  0.000000e+00  dvt1w   =  0.000000e+00  dvt2w   =  0.000000e+00  
 + drout   =  5.600000e-01  dsub    =  5.891755e-01  vth0    =  4.452273e-01  
 + ua      = -1.085785e-09  ua1     =  2.451017e-09  ub      =  2.210053e-18  
 + ub1     = -2.617479e-18  uc      =  3.755569e-11  uc1     =  2.640885e-13  
 + u0      =  3.324764e-02  ute     = -1.230449e+00  voff    = -8.793706e-02  
 + delta   =  9.688553e-03  rdsw    =  4.385596e+02  prwg    =  1.000000e-01  
 + prwb    = -7.964250e-02  prt     = -4.162666e+01  eta0    =  1.722893e-01  
 + etab    = -5.113721e-02  pclm    =  9.585992e-01  pdiblc1 =  2.537726e-12  
 + pdiblc2 = -3.312959e-04  pdiblcb = -1.000000e-03  pscbe1  =  5.656369e+08  
 + pscbe2  =  1.000000e-03  pvag    =  1.000001e-12  wr      =  9.107508e-01  
 + dwg     = -7.427878e-09  dwb     = -3.328336e-09  b0      =  1.598826e-07  
 + b1      =  5.141988e-17  alpha0  =  0.000000e+00  beta0   =  3.000000e+01  
 + elm     =  5.000000e+00  cgsl    =  0.000000e+00  cgdl    =  0.000000e+00  
 + ckappa  =  6.000000e-01  cf      =  9.056200e-11  clc     =  1.000000e-07  
 + cle     =  6.000000e-01  tnom    =  2.500000e+01  cgso    =  1.590000e-10  
 + cgdo    =  1.590000e-10  cgbo    =  0.000000e+00  xpart   =  1.000000e+00  
 + rsh     =  0.000000e+00  pb      =  5.112000e-01  mj      =  3.872000e-01  
 + mjsw    =  3.872000e-01  pbsw    =  5.112000e-01  cj      =  8.488000e-04  
 + cjsw    =  4.896000e-10  lint    =  2.345145e-09  ll      =  1.382235e-09  
 + lln     =  2.000000e-01  lw      =  0.000000e+00  lwn     =  0.000000e+00  
 + lwl     =  0.000000e+00  wint    =  1.347400e-07  wl      =  0.000000e+00  
 + wln     =  1.000000e+00  ww      = -7.781819e-14  wwn     =  1.000000e+00  
 + wwl     =  0.000000e+00  nlev    =  2.000000e+00  kf      =  0.500000e-25


 .model pch214 pmos level = 49
 + version =  3.11          acm     =  3             hdif    =  0.5e-6
 + mobmod  =  1.000000e+00  capmod  =  1.000000e+00  nqsmod  =  0.000000e+00  
 + tox     =  6.500000e-09  cdsc    =  1.000000e-10  cdscb   =  0.000000e+00  
 + cdscd   =  0.000000e+00  cit     =  2.849258e-03  nfactor =  0.000000e+00  
 + xj      =  2.000000e-07  vsat    =  1.235253e+05  at      =  0.000000e+00  
 + a0      =  5.534111e-01  ags     =  0.000000e+00  a1      =  0.000000e+00  
 + a2      =  4.000000e-01  keta    = -4.742392e-03  nch     =  1.198869e+17  
 + k1      =  5.036882e-01  kt1     = -4.972940e-01  kt1l    =  0.000000e+00  
 + kt2     = -4.796538e-02  k2      =  1.710970e-02  k3      = -1.532555e+00  
 + k3b     = -1.426295e-01  w0      = -5.128171e-07  nlx     =  1.500000e-07  
 + dvt0    =  1.318457e+00  dvt1    =  2.383284e-01  dvt2    =  0.000000e+00  
 + dvt0w   =  0.000000e+00  dvt1w   =  0.000000e+00  dvt2w   =  0.000000e+00  
 + drout   =  3.972895e-01  dsub    =  4.287821e-01  vth0    = -7.891688e-01  
 + ua      = -7.838913e-10  ua1     =  4.158887e-09  ub      =  1.416209e-18  
 + ub1     = -3.635865e-18  uc      = -3.193134e-11  uc1     =  0.000000e+00  
 + u0      =  8.644306e-03  ute     =  0.000000e+00  voff    = -1.619864e-01  
 + delta   =  1.000000e-02  rdsw    =  1.393589e+03  prwg    = -7.131702e-02  
 + prwb    = -9.573077e-02  prt     =  0.000000e+00  eta0    =  5.324062e-02  
 + etab    =  0.000000e+00  pclm    =  1.294956e+00  pdiblc1 =  1.272241e-02  
 + pdiblc2 =  5.045117e-04  pdiblcb = -8.715370e-03  pscbe1  =  4.803844e+08  
 + pscbe2  =  1.000000e-08  pvag    =  0.000000e+00  wr      =  8.585317e-01  
 + dwg     = -1.637238e-08  dwb     = -3.444345e-09  b0      =  0.000000e+00  
 + b1      =  1.000000e-04  alpha0  =  0.000000e+00  beta0   =  3.000000e+01  
 + elm     =  5.000000e+00  cgsl    =  0.000000e+00  cgdl    =  0.000000e+00  
 + ckappa  =  6.000000e-01  cf      =  9.056200e-11  clc     =  1.000000e-07  
 + cle     =  6.000000e-01  tnom    =  2.500000e+01  cgso    =  4.035600e-10  
 + cgdo    =  4.035600e-10  cgbo    =  0.000000e+00  xpart   =  1.000000e+00  
 + rsh     =  0.000000e+00  pb      =  9.316000e-01  mj      =  4.845000e-01  
 + mjsw    =  4.845000e-01  pbsw    =  9.316000e-01  cj      =  1.117000e-03  
 + cjsw    =  4.764000e-10  lint    =  5.034766e-08  ll      =  4.395297e-17  
 + lln     =  1.370692e+00  lw      =  0.000000e+00  lwn     =  0.000000e+00  
 + lwl     =  0.000000e+00  wint    =  1.924185e-07  wl      =  0.000000e+00  
 + wln     =  1.000000e+00  ww      = -9.207185e-13  wwn     =  8.342567e-01  
 + wwl     =  0.000000e+00  nlev    =  2.000000e+00  kf      =  0.250000e-25



 ***********************************************************************
 ** runlvl is invoked, you can disable it by:
      a) Add option runlvl=0 to your current simulation job.
      b) Copy $installdir/hspice.ini to your HOME directory and
         customize it by adding option runlvl=0, which disables
         it for all of your simulation jobs.
      c) Re-invoke $installdir/bin/config program and unselect the
         option runlvl setting in box 'hspice.ini' which disables
         it for whole group simulation jobs.

 ** runlvl is invoked, some options are ignored or automatically set:
      Options below are automatically set(user setting will overwrite them):
      if runlvl=6,            .option bypass=0
      if runlvl=[1|2|3|4|5],  .option bypass=2

      Options below are ignored, they are replaced by automated algorithms:
        lvltim    dvdt      ft    fast   trtol  absvar  relvar
          relq  chgtol    dvtr    imin    itl3    rmax

 ** runlvl is invoked, actual option value used by HSPICE are:
       runlvl= 6       bypass= 0      mbypass=   2.00   bytol= 100.00u
 ***********************************************************************


 **warning** dc voltage reset to initial transient source value
             in source        0:vsd                 new dc=  0.0000D+00

 

  Opening plot unit= 79
 file=d:\seafile\大三下学期\模拟集成电路\project_telescopic\ota_test.pa0       


 **diagnostic** dc convergence failure, 
 resetting dcon option to 1 and retrying

 **diagnostic** dc convergence successful
 you can increase the efficiency of the
 operating point calculation by setting dcon= 1
 in the .option statement
 ****** HSPICE  --  A-2007.09  32-BIT    (Aug 28 2007) 10:54:10 06/17/2018 winnt
 ******  
 * ee214 design project                                                         
  ******  operating point information      tnom=  25.000 temp=  25.000          
 ******  
 ***** operating point status is all       simulation time is     0.     
    node    =voltage      node    =voltage      node    =voltage

 +0:vdd     =   3.0000  0:voc     =   1.5040  0:vod     =   1.2044p
 +0:vom     =   1.5040  0:vomm    =   1.5040  0:vop     =   1.5040 
 +0:vopp    =   1.5040  0:vsc     =   1.1000  0:vsd     =   0.     
 +0:vsm     =   1.1000  0:vsp     =   1.1000  0:xm      =   1.1000 
 +0:xp      =   1.1000  0:ym      =   1.1000  0:yp      =   1.1000 
 +1:p       = 265.5484m 1:pb      =   2.5403  1:pc      =   2.5358 
 +1:pd      =   2.5357  1:pe      =   2.5358  1:pf      = 648.8839m
 +1:pg      = 648.8839m 1:ph      = 660.9098m 1:pib     = 790.4653m
 +1:vbb1    =   1.2550  1:vbb2    =   1.5017  1:vbias   =   1.8042 
 +1:vid     =   1.2044p 1:voc     =   1.5040  1:vocdes  =   1.5000 
 +3:vminv   =  -1.5040  4:middlem =   1.1000  4:middlep =   1.1000 
 +5:vminv   =  -1.5040 


 ****  voltage sources

 subckt                                                          x1        
 element  0:vdd      0:vsc      0:vmp      0:vmm      0:vsd      1:v1      
  volts      3.0000     1.1000     0.         0.         0.         1.5000 
  current   -4.7027m    0.         0.         0.         0.         0.     
  power     14.1080m    0.         0.         0.         0.         0.     

 subckt   xt         xt         xt         xt        
 element  4:vxp      4:vyp      4:vxm      4:vym     
  volts      0.         0.         0.         0.     
  current    0.         0.         0.         0.     
  power      0.         0.         0.         0.     

     total voltage source power dissipation=   14.1080m       watts



 ***** current sources

 subckt   x1         xt        
 element  1:ib       4:it      
  volts      2.2095     0.     
  current  200.0000u    0.     
  power   -441.9069u    0.     


     total current source power dissipation=-441.9069u       watts

 **** resistors

 subckt                         xs         xs         x1.x1      x1.x1     
 element  0:rs1      0:rs2      3:rdum1    3:rdum2    5:rdum1    5:rdum2   
  r value   10.0000g   10.0000g    1.0000g    1.0000g    1.0000g    1.0000g
  v drop     0.         0.         1.2044p    1.5040     1.2044p    1.5040 
  current    0.         0.       1.204e-21    1.5040n  1.204e-21    1.5040n
  power      0.         0.         0.         2.2620n    0.         2.2620n


 **** voltage-controlled current sources


 subckt     x1      
 element  1:g1      
  v drop  -265.5484m
  current -200.5114u




 **** voltage-controlled voltage sources


 subckt     xd         xd         xs         xs         xs         x1.x1   
 element  2:e1       2:e2       3:e1       3:e2       3:e3       5:e1      
  volts      0.         0.        -1.5040     1.5040     1.2044p   -1.5040 
  current    0.         0.         0.        -1.5040n -1.204e-21    0.     



 subckt     x1.x1      x1.x1   
 element  5:e2       5:e3      
  volts      1.5040     1.2044p
  current   -1.5040n -1.204e-21





 **** mosfets


 subckt   x1         x1         x1         x1         x1         x1        
 element  1:m01      1:mbb1     1:m02      1:mc2      1:mc1      1:m03     
 model    0:nch214   0:pch214   0:nch214   0:pch214   0:pch214   0:nch214  
 region     Saturati   Saturati   Saturati   Saturati   Saturati   Saturati
  id       200.0000u   -1.0136m    1.0136m   -1.0250m   -1.0250m    1.0250m
  ibs        0.         0.         0.         0.         0.         0.     
  ibd        0.         0.         0.         0.         0.         0.     
  vgs      790.4653m   -1.7450   790.4653m   -1.1958    -1.2853   790.4653m
  vds      790.4653m   -1.7450     1.2550  -459.6671m -736.0937m    1.8042 
  vbs        0.         0.         0.         0.       459.6671m    0.     
  vth      581.6826m -774.4957m  580.9225m -778.7966m -883.2398m  580.0237m
  vdsat    171.0636m -804.2888m  171.5382m -395.8447m -392.8996m  172.0991m
  vod      208.7826m -970.5004m  209.5428m -416.9642m -402.0892m  210.4416m
  beta      10.3064m    2.4291m   51.5312m   12.3601m   12.2448m   51.5299m
  gam eff  894.1238m  472.5709m  894.1238m  472.5709m  464.8742m  894.1238m
  gm         1.7681m    1.7972m    8.9445m    4.1818m    4.5144m    9.0139m
  gds        7.8026u   38.4567u   23.5084u  374.5451u  121.8640u   18.7492u
  gmb      560.6860u  423.2579u    2.8339m    1.0155m  932.0674u    2.8532m
  cdtot     43.2461f   48.9771f  195.9881f  310.7750f  265.6748f  179.9257f
  cgtot     79.7755f   92.8468f  398.8913f  464.2280f  461.9515f  398.9076f
  cstot    131.4536f  143.3203f  657.2306f  716.5924f  652.1168f  657.1858f
  cbtot    117.2897f  113.9708f  566.2112f  639.4413f  522.9515f  550.1548f
  cgs       62.9208f   73.9624f  314.5577f  366.1059f  370.7393f  314.5025f
  cgd        6.8140f   13.4317f   34.0697f   67.1583f   67.1659f   34.0697f



 subckt   x1         x1         x1         x1         x1         x1        
 element  1:m3       1:m3a      1:m1a      1:m1       1:mbb4     1:mbb2    
 model    0:pch214   0:pch214   0:nch214   0:nch214   0:pch214   0:pch214  
 region     Saturati   Saturati   Saturati   Saturati   Saturati   Saturati
  id        -1.0267m   -1.0267m    1.0267m    1.0267m -410.6748u -410.6748u
  ibs        0.         0.         0.         0.         0.         0.     
  ibd        0.         0.         0.         0.         0.         0.     
  vgs       -1.1958    -1.2807   852.8085m  834.4516m   -1.1958    -1.2807 
  vds     -464.2499m   -1.0317   855.1263m  383.3355m -464.2769m   -1.0340 
  vbs        0.       464.2499m -648.8839m -265.5484m    0.       464.2769m
  vth     -778.7812m -883.2100m  758.7337m  678.2415m -778.7811m -883.2080m
  vdsat   -395.8569m -389.2707m  109.3444m  142.0490m -395.8569m -389.2508m
  vod     -416.9795m -397.5362m   94.0748m  156.2101m -416.9796m -397.5112m
  beta      12.3601m   12.2457m  166.1347m   82.6703m    4.9440m    4.8983m
  gam eff  472.5709m  464.8051m  929.8675m  909.9672m  472.5709m  464.8047m
  gm         4.1969m    4.6146m   15.1748m   11.0420m    1.6788m    1.8460m
  gds      363.1993u   70.0085u  203.3642u  288.6595u  145.2538u   27.9135u
  gmb        1.0191m  950.7655u    2.9300m    2.5443m  407.6293u  380.3430u
  cdtot    310.3888f  253.4428f  375.9074f  224.5117f  124.1546f  101.3429f
  cgtot    464.2280f  461.9333f  533.4944f  274.9583f  185.6912f  184.7733f
  cstot    716.5924f  651.6394f  835.3831f  466.0959f  286.6369f  260.6547f
  cbtot    639.0551f  510.2082f  830.1837f  493.5859f  255.6211f  204.0478f
  cgs      366.1060f  370.7562f  390.1887f  202.2131f  146.4424f  148.3025f
  cgd       67.1583f   67.1660f   64.3916f   32.3462f   26.8633f   26.8664f



 subckt   x1         x1         x1         x1         x1         x1        
 element  1:mb2      1:mb1      1:m0       1:m4       1:m4a      1:m2a     
 model    0:nch214   0:nch214   0:nch214   0:pch214   0:pch214   0:nch214  
 region     Saturati     Linear   Saturati   Saturati   Saturati   Saturati
  id       410.6748u  410.6748u    2.2635m   -1.0267m   -1.0267m    1.0267m
  ibs        0.         0.         0.         0.         0.         0.     
  ibd        0.         0.         0.         0.         0.         0.     
  vgs      840.7827m    1.2361   790.4653m   -1.1958    -1.2807   852.8085m
  vds      840.7827m  395.3614m  265.5484m -464.2499m   -1.0317   855.1263m
  vbs     -660.9098m -265.5484m    0.         0.       464.2499m -648.8839m
  vth      761.3427m  677.1201m  582.5416m -778.7812m -883.2100m  758.7337m
  vdsat    100.8723m  343.1282m  170.5272m -395.8569m -389.2707m  109.3444m
  vod       79.4399m  559.0239m  207.9236m -416.9795m -397.5362m   94.0748m
  beta      83.0759m    4.0109m  123.6802m   12.3601m   12.2457m  166.1347m
  gam eff  930.4486m  909.9672m  894.1238m  472.5709m  464.8051m  929.8675m
  gm         6.5413m    1.0608m   19.5421m    4.1969m    4.6146m   15.1748m
  gds       87.1738u  308.8810u  910.2141u  363.1993u   70.0085u  203.3642u
  gmb        1.2594m  238.7480u    6.2134m    1.0191m  950.7655u    2.9300m
  cdtot    188.0220f   11.6751f  615.4100f  310.3888f  253.4428f  375.9074f
  cgtot    262.6276f   13.4783f  957.2667f  464.2280f  461.9333f  533.4944f
  cstot    411.0923f   23.7411f    1.5775p  716.5924f  651.6394f  835.3831f
  cbtot    414.0827f   25.5842f    1.5039p  639.0551f  510.2082f  830.1837f
  cgs      190.1827f   10.0800f  755.1742f  366.1060f  370.7562f  390.1887f
