 ****** HSPICE  --  A-2007.09  32-BIT    (Aug 28 2007) 03:53:28 07/04/2018 winnt
  Copyright (C) 2007 Synopsys, Inc. All Rights Reserved.                        
  Unpublished-rights reserved under US copyright laws.
  This program is protected by law and is subject to the 
  terms and conditions of the license agreement found in:
    C:\synopsys\Hspice_A-2007.09\license.txt
  Use of this program is your acceptance to be bound by this 
  license agreement. HSPICE is the trademark of Synopsys, Inc.
  Input File: c:\users\zichen fan\desktop\fully-differential-ota-design\project_
  lic:  
  lic: FLEXlm: v8.5b 
  lic: USER:   Zichen Fan           HOSTNAME: DESKTOP-V3SQE64 
  lic: HOSTID: "985fd3462180 0205857feb80 985fd346217f 9a5fd346207e 9a5fd346257e
 "
  lic: Using FLEXlm license file: 
  lic: C:\synopsys\Hspice_A-2007.09\hspice_2007-09.lic 
  lic: Checkout 1 hspice;  Encryption code: AD47C1C891DA5D596A45 
  lic: License/Maintenance for hspice will expire on 31-dec-2020/2007.9 
  lic: NODE LOCKED license on hostid "985fd3462180 0205857feb80 985fd346217f 9a5
 f
  lic:   
 Init: read install configuration file: C:\synopsys\Hspice_A-2007.09\meta.cfg
 Init: hspice initialization file: C:\synopsys\Hspice_A-2007.09\hspice.ini




 * testbench

 .include utils.sp
 .subckt balun vdm vcm vp vm
 e1 vp vcm transformer vdm 0 2
 e2 vcm vm transformer vdm 0 2
 .ends balun

 .subckt diffsense vd vc vp vm
 e1 vminv  0 vm 0      -1
 e2 vc     0 vp vminv  0.5
 e3 vd     0 vp vm     1
 * these resistors help suppress "singular node" warnings
 rdum1 vd  0   1gig
 rdum2 vc  0   1gig
 .ends diffsense

 .subckt diffdrive vp vm vd vc
 e1 vp vc vd 0  0.5
 e2 vm vc vd 0  -0.5
 .ends diffdrive

 .subckt looptest x y ai=0 av=0
 vx middle x  dc 0
 vy middle y  ac 'av'
 it 0 middle  ac 'ai'
 .ends looptest

 .subckt difflooptest xp xm yp ym ai=0 av=0
 vxp middlep xp  dc 0
 vyp middlep yp  ac 'av'
 vxm middlem xm  ac 'av'
 vym middlem ym  dc 0
 it  middlem middlep  ac 'ai'
 .ends difflooptest
 .include ota_example.sp
 * ee214 design project
 * name 1: joe example
 * name 2: john doe

 ******************************************************
 *test parameters (will be used by testbench ota_test.sp
 ******************************************************
 * capacitor sizes
 .param cs=8.5p
 .param cl=2p
 *.param cf=2p
 * input common mode
 .param input_common=0.83

 * differential input voltage step
 .param input_diff=0.85
 ******************************************************


 ********************telescopic**********************
 ********************telescopic**********************

 .subckt ota vip vim vop vom vdd 

 *ib
 ib vdd pib 0.1075m
 m01 pib pib 0 0 nch214 w=100um l=1.1um
 *rnoi pib 0 0
 *cnoi vdd pib 1
 *2nd branch
 *mbb3 pa vbb1 vdd vdd pch214 w=100um l=1.1um m=5
 mbb1 vbb1 vbb1 vdd vdd pch214 w=400um l=1.1um
 m02 vbb1 pib 0 0 nch214 w=400um l=1.1um m=5

 *3rd branch
 mc2 pb vbias vdd vdd pch214 w=400um l=1.1um m=5
 mc1 vbias vbb1 pb vdd pch214 w=400um l=1.1um m=5
 m03 vbias pib 0 0 nch214 w=400um l=1.1um m=5

 *4th branch
 m3 pc vbias vdd vdd pch214 w=400um l=1.1um m=5
 m3a vop vbb1 pc vdd pch214 w=400um l=1.1um m=5
 m1a vop vbb2 pf 0 nch214 w=100um l=0.65um m=10
 m1 pf vim p 0 nch214 w=100um l=0.65um m=10
 *cpc pc vdd 10p

 *5th branch
 mbb4 pd vbias vdd vdd pch214 w=400um l=1.1um m=2
 mbb2 vbb2 vbb1 pd vdd pch214 w=400um l=1.1um m=2
 mb2 vbb2 vbb2 ph 0 nch214 w=100um l=0.65um m=5
 mb1 ph vbb2 p 0 nch214 w=50um l=0.65um
 m0 p pib 0 0 nch214 w=400um l=1.1um m=12
 *rnoi p 0 0
 *vbb2 vbb2 0 1.0
 *vp p 0 0.3
 *cp p 0 10p

 *6th branch
 m4 pe vbias vdd vdd pch214 w=400um l=1.1um m=5
 m4a vom vbb1 pe vdd pch214 w=400um l=1.1um m=5
 m2a vom vbb2 pg 0 nch214 w=100um l=0.65um m=10
 m2 pg vip p 0 nch214 w=100um l=0.65um m=10
 *cpe pe vdd 10p

 *2rd stage
 * m5 ps1 vbias vdd vdd pch214 w=1100um l=1.1um
 * m5a vom vbb1 ps1 vdd pch214 w=1100um l=1.1um
 * ms1 vom vom1 0 0 nch214 w=1100um l=0.65um

 * m6 ps3 vbias vdd vdd pch214 w=1100um l=1.1um
 * m6a vop vbb1 ps3 vdd pch214 w=1100um l=1.1um
 * ms2 vop vop1 0 0 nch214 w=1100um l=0.65um

 x1 vid voc vop vom diffsense
 v1 vocdes 0 1.45
 g1 0 p vocdes voc  70m

 .lib 'ee214_hspice.txt' nominal

 * ee214 cmos transistor models in hspice format
 * boris murmann 9/6/04
 * channel length  0.35um ... 15um (nmos)
 *		  0.35um ... 15um (pmos)
 * channel width	  >= 1um
 * nominal parameter values:
 * threshold	  0.60v  (nmos)
 *		  0.85v  (pmos)
 * oxide thickness 6.5nm

 .model nch214 nmos level = 49
 + version =  3.11          acm     =  3             hdif    =  0.5e-6
 + mobmod  =  1.000000e+00  capmod  =  1.000000e+00  nqsmod  =  0.000000e+00  
 + tox     =  6.500000e-09  cdsc    =  1.000000e-10  cdscb   =  0.000000e+00  
 + cdscd   =  3.146578e-03  cit     = -1.165567e-03  nfactor =  2.067847e+00  
 + xj      =  2.000000e-07  vsat    =  1.733115e+05  at      =  4.587946e+04  
 + a0      =  1.208623e+00  ags     =  2.664144e-01  a1      =  0.000000e+00  
 + a2      =  3.926521e-01  keta    = -5.969015e-03  nch     =  3.053200e+17  
 + k1      =  7.823191e-01  kt1     = -2.968857e-01  kt1l    =  6.948321e-09  
 + kt2     = -2.439718e-02  k2      = -5.976393e-02  k3      = -2.348052e+00  
 + k3b     = -2.995700e+00  w0      =  0.000000e+00  nlx     =  2.343014e-07  
 + dvt0    =  1.904429e+01  dvt1    =  8.095353e-01  dvt2    =  6.252991e-03  
 + dvt0w   =  0.000000e+00  dvt1w   =  0.000000e+00  dvt2w   =  0.000000e+00  
 + drout   =  5.600000e-01  dsub    =  5.891755e-01  vth0    =  4.452273e-01  
 + ua      = -1.085785e-09  ua1     =  2.451017e-09  ub      =  2.210053e-18  
 + ub1     = -2.617479e-18  uc      =  3.755569e-11  uc1     =  2.640885e-13  
 + u0      =  3.324764e-02  ute     = -1.230449e+00  voff    = -8.793706e-02  
 + delta   =  9.688553e-03  rdsw    =  4.385596e+02  prwg    =  1.000000e-01  
 + prwb    = -7.964250e-02  prt     = -4.162666e+01  eta0    =  1.722893e-01  
 + etab    = -5.113721e-02  pclm    =  9.585992e-01  pdiblc1 =  2.537726e-12  
 + pdiblc2 = -3.312959e-04  pdiblcb = -1.000000e-03  pscbe1  =  5.656369e+08  
 + pscbe2  =  1.000000e-03  pvag    =  1.000001e-12  wr      =  9.107508e-01  
 + dwg     = -7.427878e-09  dwb     = -3.328336e-09  b0      =  1.598826e-07  
 + b1      =  5.141988e-17  alpha0  =  0.000000e+00  beta0   =  3.000000e+01  
 + elm     =  5.000000e+00  cgsl    =  0.000000e+00  cgdl    =  0.000000e+00  
 + ckappa  =  6.000000e-01  cf      =  9.056200e-11  clc     =  1.000000e-07  
 + cle     =  6.000000e-01  tnom    =  2.500000e+01  cgso    =  1.590000e-10  
 + cgdo    =  1.590000e-10  cgbo    =  0.000000e+00  xpart   =  1.000000e+00  
 + rsh     =  0.000000e+00  pb      =  5.112000e-01  mj      =  3.872000e-01  
 + mjsw    =  3.872000e-01  pbsw    =  5.112000e-01  cj      =  8.488000e-04  
 + cjsw    =  4.896000e-10  lint    =  2.345145e-09  ll      =  1.382235e-09  
 + lln     =  2.000000e-01  lw      =  0.000000e+00  lwn     =  0.000000e+00  
 + lwl     =  0.000000e+00  wint    =  1.347400e-07  wl      =  0.000000e+00  
 + wln     =  1.000000e+00  ww      = -7.781819e-14  wwn     =  1.000000e+00  
 + wwl     =  0.000000e+00  nlev    =  2.000000e+00  kf      =  0.500000e-25


 .model pch214 pmos level = 49
 + version =  3.11          acm     =  3             hdif    =  0.5e-6
 + mobmod  =  1.000000e+00  capmod  =  1.000000e+00  nqsmod  =  0.000000e+00  
 + tox     =  6.500000e-09  cdsc    =  1.000000e-10  cdscb   =  0.000000e+00  
 + cdscd   =  0.000000e+00  cit     =  2.849258e-03  nfactor =  0.000000e+00  
 + xj      =  2.000000e-07  vsat    =  1.235253e+05  at      =  0.000000e+00  
 + a0      =  5.534111e-01  ags     =  0.000000e+00  a1      =  0.000000e+00  
 + a2      =  4.000000e-01  keta    = -4.742392e-03  nch     =  1.198869e+17  
 + k1      =  5.036882e-01  kt1     = -4.972940e-01  kt1l    =  0.000000e+00  
 + kt2     = -4.796538e-02  k2      =  1.710970e-02  k3      = -1.532555e+00  
 + k3b     = -1.426295e-01  w0      = -5.128171e-07  nlx     =  1.500000e-07  
 + dvt0    =  1.318457e+00  dvt1    =  2.383284e-01  dvt2    =  0.000000e+00  
 + dvt0w   =  0.000000e+00  dvt1w   =  0.000000e+00  dvt2w   =  0.000000e+00  
 + drout   =  3.972895e-01  dsub    =  4.287821e-01  vth0    = -7.891688e-01  
 + ua      = -7.838913e-10  ua1     =  4.158887e-09  ub      =  1.416209e-18  
 + ub1     = -3.635865e-18  uc      = -3.193134e-11  uc1     =  0.000000e+00  
 + u0      =  8.644306e-03  ute     =  0.000000e+00  voff    = -1.619864e-01  
 + delta   =  1.000000e-02  rdsw    =  1.393589e+03  prwg    = -7.131702e-02  
 + prwb    = -9.573077e-02  prt     =  0.000000e+00  eta0    =  5.324062e-02  
 + etab    =  0.000000e+00  pclm    =  1.294956e+00  pdiblc1 =  1.272241e-02  
 + pdiblc2 =  5.045117e-04  pdiblcb = -8.715370e-03  pscbe1  =  4.803844e+08  
 + pscbe2  =  1.000000e-08  pvag    =  0.000000e+00  wr      =  8.585317e-01  
 + dwg     = -1.637238e-08  dwb     = -3.444345e-09  b0      =  0.000000e+00  
 + b1      =  1.000000e-04  alpha0  =  0.000000e+00  beta0   =  3.000000e+01  
 + elm     =  5.000000e+00  cgsl    =  0.000000e+00  cgdl    =  0.000000e+00  
 + ckappa  =  6.000000e-01  cf      =  9.056200e-11  clc     =  1.000000e-07  
 + cle     =  6.000000e-01  tnom    =  2.500000e+01  cgso    =  4.035600e-10  
 + cgdo    =  4.035600e-10  cgbo    =  0.000000e+00  xpart   =  1.000000e+00  
 + rsh     =  0.000000e+00  pb      =  9.316000e-01  mj      =  4.845000e-01  
 + mjsw    =  4.845000e-01  pbsw    =  9.316000e-01  cj      =  1.117000e-03  
 + cjsw    =  4.764000e-10  lint    =  5.034766e-08  ll      =  4.395297e-17  
 + lln     =  1.370692e+00  lw      =  0.000000e+00  lwn     =  0.000000e+00  
 + lwl     =  0.000000e+00  wint    =  1.924185e-07  wl      =  0.000000e+00  
 + wln     =  1.000000e+00  ww      = -9.207185e-13  wwn     =  8.342567e-01  
 + wwl     =  0.000000e+00  nlev    =  2.000000e+00  kf      =  0.250000e-25



 * slow corner
 * .lib 'ee214_hspice_slowfast.txt' slow
 * .temp 125

 * fast corner
 * .lib 'ee214_hspice_slowfast.txt' fast
 * .temp 0

 ******************************************************
 *circuit description
 ******************************************************

 vdd vdd  0   3
 vsc vsc  0   'input_common'


 cl1 vop  0  'cl'
 cl2 vom  0  'cl'
 cs1 vsp yp  'cs'
 cs2 vsm ym  'cs'
 rs1 vsp yp  10gig
 rs2 vsm ym  10gig
 cf1 yp  vom '0.5*cs'
 cf2 ym  vop '0.5*cs'

 x1  xp xm vopp vomm vdd ota
 vmp vopp vop 0
 vmm vomm vom 0

 xd  vsp vsm vsd vsc diffdrive
 xs  vod voc vop vom diffsense
 xt  xp  xm  yp  ym  difflooptest ai='ai' av='av'
 .param ai=1 av=0

 ******************************************************
 *stimulus and analyses (uncomment respective statements)
 ******************************************************
 .options post brief runlvl=6 
 

  Opening plot unit= 79
 file=c:\users\zichen fan\desktop\fully-differential-ota-design\project_telesco


 **diagnostic** dc convergence failure, 
 resetting dcon option to 1 and retrying

 **diagnostic** dc convergence successful
 you can increase the efficiency of the
 operating point calculation by setting dcon= 1
 in the .option statement
 ****** HSPICE  --  A-2007.09  32-BIT    (Aug 28 2007) 03:53:28 07/04/2018 winnt
 ******  
 * ee214 design project                                                         
  ******  operating point information      tnom=  25.000 temp=  25.000          
 ******  
 ***** operating point status is all       simulation time is     0.     
    node    =voltage      node    =voltage      node    =voltage

 +0:vdd     =   3.0000  0:voc     =   1.4582  0:vod     =  -1.6396p
 +0:vom     =   1.4582  0:vomm    =   1.4582  0:vop     =   1.4582 
 +0:vopp    =   1.4582  0:vsc     = 830.0000m 0:vsd     =   0.     
 +0:vsm     = 830.0000m 0:vsp     = 830.0000m 0:xm      = 830.0000m
 +0:xp      = 830.0000m 0:ym      = 830.0000m 0:yp      = 830.0000m
 +1:p       = 107.7889m 1:pb      =   2.7837  1:pc      =   2.7825 
 +1:pd      =   2.7819  1:pe      =   2.7825  1:pf      = 327.0078m
 +1:pg      = 327.0078m 1:ph      = 338.1031m 1:pib     = 628.3136m
 +1:vbb1    =   1.7362  1:vbb2    =   1.1083  1:vbias   =   1.9977 
 +1:vid     =  -1.6396p 1:voc     =   1.4582  1:vocdes  =   1.4500 
 +3:vminv   =  -1.4582  4:middlem = 830.0000m 4:middlep = 830.0000m
 +5:vminv   =  -1.4582 


 ****  voltage sources

 subckt                                                          x1        
 element  0:vdd      0:vsc      0:vmp      0:vmm      0:vsd      1:v1      
  volts      3.0000   830.0000m    0.         0.         0.         1.4500 
  current   -9.6482m    0.         0.         0.         0.         0.     
  power     28.9446m    0.         0.         0.         0.         0.     

 subckt   xt         xt         xt         xt        
 element  4:vxp      4:vyp      4:vxm      4:vym     
  volts      0.         0.         0.         0.     
  current    0.         0.         0.         0.     
  power      0.         0.         0.         0.     

     total voltage source power dissipation=   28.9446m       watts



 ***** current sources

 subckt   x1         xt        
 element  1:ib       4:it      
  volts      2.3717     0.     
  current  107.5000u    0.     
  power   -254.9563u    0.     


     total current source power dissipation=-254.9563u       watts

 **** resistors

 subckt                         xs         xs         x1.x1      x1.x1     
 element  0:rs1      0:rs2      3:rdum1    3:rdum2    5:rdum1    5:rdum2   
  r value   10.0000g   10.0000g    1.0000g    1.0000g    1.0000g    1.0000g
  v drop     0.         0.        -1.6396p    1.4582    -1.6396p    1.4582 
  current    0.         0.      -1.640e-21    1.4582n -1.640e-21    1.4582n
  power      0.         0.         0.         2.1264n    0.         2.1264n


 **** voltage-controlled current sources


 subckt     x1      
 element  1:g1      
  v drop  -107.7889m
  current -574.5356u




 **** voltage-controlled voltage sources


 subckt     xd         xd         xs         xs         xs         x1.x1   
 element  2:e1       2:e2       3:e1       3:e2       3:e3       5:e1      
  volts      0.         0.        -1.4582     1.4582    -1.6396p   -1.4582 
  current    0.         0.         0.        -1.4582n  1.640e-21    0.     



 subckt     x1.x1      x1.x1   
 element  5:e2       5:e3      
  volts      1.4582    -1.6396p
  current   -1.4582n  1.640e-21





 **** mosfets


 subckt   x1         x1         x1         x1         x1         x1        
 element  1:m01      1:mbb1     1:m02      1:mc2      1:mc1      1:m03     
 model    0:nch214   0:pch214   0:nch214   0:pch214   0:pch214   0:nch214  
 region     Saturati   Saturati   Saturati   Saturati   Saturati   Saturati
  id       107.5000u   -2.1658m    2.1658m   -2.1670m   -2.1670m    2.1670m
  ibs        0.         0.         0.         0.         0.         0.     
  ibd        0.         0.         0.         0.         0.         0.     
  vgs      628.3136m   -1.2638   628.3136m   -1.0023    -1.0475   628.3136m
  vds      628.3136m   -1.2638     1.7362  -216.2968m -786.0287m    1.9977 
  vbs        0.         0.         0.         0.       216.2968m    0.     
  vth      522.4422m -805.6171m  522.5191m -806.0269m -862.7795m  522.5135m
  vdsat    105.2446m -435.6132m  105.2382m -218.3734m -211.8647m  105.2415m
  vod      105.8714m -458.1810m  105.7945m -196.2986m -184.7217m  105.8001m
  beta      19.0822m   20.8123m  382.4087m  104.3446m  104.0570m  382.4086m
  gam eff  894.1238m  472.5709m  894.1238m  472.5709m  468.7374m  894.1238m
  gm         1.5831m    8.6301m   31.9143m   16.9005m   19.1563m   31.9331m
  gds        1.9301u   51.5573u    5.3518u    2.2606m   86.8601u    4.5009u
  gmb      519.2976u    2.2889m   10.4647m    4.5972m    4.7001m   10.4708m
  cdtot    159.6307f  744.6218f    2.5622p    4.7329p    3.8965p    2.4761p
  cgtot    486.3279f    1.9916p    9.7448p    9.9189p    9.8688p    9.7448p
  cstot    686.9422f    2.8120p   13.7424p   13.9986p   13.3794p   13.7425p
  cbtot    519.3299f    1.8826p    9.7490p   10.4705p    8.9664p    9.6630p
  cgs      387.4195f    1.6773p    7.7610p    8.2862p    8.3008p    7.7610p
  cgd       24.8800f  196.8346f  498.6017f  984.1886f  984.2081f  498.6017f



 subckt   x1         x1         x1         x1         x1         x1        
 element  1:m3       1:m3a      1:m1a      1:m1       1:mbb4     1:mbb2    
 model    0:pch214   0:pch214   0:nch214   0:nch214   0:pch214   0:pch214  
 region     Saturati   Saturati   Saturati   Saturati   Saturati   Saturati
  id        -2.1698m   -2.1698m    2.1698m    2.1698m -868.3721u -868.3721u
  ibs        0.         0.         0.         0.         0.         0.     
  ibd        0.         0.         0.         0.         0.         0.     
  vgs       -1.0023    -1.0463   781.3021m  722.2111m   -1.0023    -1.0457 
  vds     -217.5380m   -1.3243     1.1312   219.2188m -218.0567m   -1.6736 
  vbs        0.       217.5380m -327.0078m -107.7889m    0.       218.0567m
  vth     -806.0264m -862.8789m  677.5535m  610.7341m -806.0262m -862.8718m
  vdsat   -218.3738m -210.7783m  111.8947m  112.3962m -218.3740m -210.3645m
  vod     -196.2991m -183.3812m  103.7485m  111.4769m -196.2993m -182.8696m
  beta     104.3446m  104.0567m  340.8516m  339.0240m   41.7378m   41.6227m
  gam eff  472.5709m  468.7166m  913.3614m  900.8105m  472.5709m  468.7080m
  gm        16.9528m   19.2976m   31.3430m   30.0943m    6.7897m    7.7362m
  gds        2.2109m   44.1637u   54.6460u  739.2113u  876.1871u   13.9358u
  gmb        4.6110m    4.7318m    8.6087m    9.1995m    1.8467m    1.8964m
  cdtot      4.7310p    3.5696p    1.3391p    1.7664p    1.8921p    1.3637p
  cgtot      9.9189p    9.8668p    2.9795p    3.0057p    3.9675p    3.9464p
  cstot     13.9986p   13.3737p    4.3671p    4.6447p    5.5994p    5.3486p
  cbtot     10.4685p    8.6363p    3.5934p    4.3029p    4.1871p    3.3898p
  cgs        8.2862p    8.2985p    2.3357p    2.3493p    3.3145p    3.3190p
  cgd      984.1886f  984.2089f  246.0179f  246.1622f  393.6754f  393.6837f



 subckt   x1         x1         x1         x1         x1         x1        
 element  1:mb2      1:mb1      1:m0       1:m4       1:m4a      1:m2a     
 model    0:nch214   0:nch214   0:nch214   0:pch214   0:pch214   0:nch214  
 region     Saturati     Linear   Saturati   Saturati   Saturati   Saturati
  id       868.3721u  868.3721u    4.6334m   -2.1698m   -2.1698m    2.1698m
  ibs        0.         0.         0.         0.         0.         0.     
  ibd        0.         0.         0.         0.         0.         0.     
  vgs      770.2067m    1.0005   628.3136m   -1.0023    -1.0463   781.3021m
  vds      770.2067m  230.3142m  107.7889m -217.5380m   -1.3243     1.1312 
  vbs     -338.1031m -107.7889m    0.         0.       217.5380m -327.0078m
  vth      681.1937m  610.6060m  522.5538m -806.0264m -862.8789m  677.5535m
  vdsat    103.0422m  285.7371m  105.2172m -218.3738m -210.7783m  111.8947m
  vod       89.0130m  389.9149m  105.7598m -196.2991m -183.3812m  103.7485m
  beta     170.4252m   16.9843m  917.7829m  104.3446m  104.0567m  340.8516m
  gam eff  913.9648m  900.8105m  894.1238m  472.5709m  468.7166m  913.3614m
  gm        13.4804m    3.2120m   63.0122m   16.9528m   19.2976m   31.3430m
  gds       31.7896u    1.7441m   11.0037m    2.2109m   44.1637u   54.6460u
  gmb        3.6929m  974.8240u   20.7439m    4.6110m    4.7318m    8.6087m
  cdtot    712.4224f   88.3056f    9.3559p    4.7310p    3.5696p    1.3391p
  cgtot      1.4693p  153.5680f   23.3869p    9.9189p    9.8668p    2.9795p
  cstot      2.1471p  238.2759f   32.9808p   13.9986p   13.3737p    4.3671p
  cbtot      1.8331p  214.4621f   26.6043p   10.4685p    8.6363p    3.5934p
  cgs        1.1419p  123.2270f   18.6256p    8.2862p    8.2985p    2.3357p
  cgd      123.0270f   12.2717f    1.1966p  984.1886f  984.2089f  246.0179f



 subckt   x1        
 element  1:m2      
 model    0:nch214  
 region     Saturati
  id         2.1698m
  ibs        0.     
