 ****** HSPICE  --  A-2007.09  32-BIT    (Aug 28 2007) 18:49:19 06/17/2018 winnt
  Copyright (C) 2007 Synopsys, Inc. All Rights Reserved.                        
  Unpublished-rights reserved under US copyright laws.
  This program is protected by law and is subject to the 
  terms and conditions of the license agreement found in:
    C:\synopsys\Hspice_A-2007.09\license.txt
  Use of this program is your acceptance to be bound by this 
  license agreement. HSPICE is the trademark of Synopsys, Inc.
  Input File: d:\seafile\大三下学期\模拟集成电路\project_telescopic\ota_test.sp 
  lic:  
  lic: FLEXlm: v8.5b 
  lic: USER:   Zichen Fan           HOSTNAME: DESKTOP-V3SQE64 
  lic: HOSTID: "985fd3462180 985fd346217f 9a5fd346207e 9a5fd346257e" PID:      8
 8
  lic: Using FLEXlm license file: 
  lic: C:\synopsys\Hspice_A-2007.09\hspice_2007-09.lic 
  lic: Checkout 1 hspice;  Encryption code: AD47C1C891DA5D596A45 
  lic: License/Maintenance for hspice will expire on 31-dec-2020/2007.9 
  lic: NODE LOCKED license on hostid "985fd3462180 985fd346217f 9a5fd346207e 9a5
 f
  lic:   
 Init: read install configuration file: C:\synopsys\Hspice_A-2007.09\meta.cfg
 Init: hspice initialization file: C:\synopsys\Hspice_A-2007.09\hspice.ini




 .subckt balun vdm vcm vp vm
 e1 vp vcm transformer vdm 0 2
 e2 vcm vm transformer vdm 0 2
 .ends balun

 .subckt diffsense vd vc vp vm
 e1 vminv  0 vm 0      -1
 e2 vc     0 vp vminv  0.5
 e3 vd     0 vp vm     1
 * these resistors help suppress "singular node" warnings
 rdum1 vd  0   1gig
 rdum2 vc  0   1gig
 .ends diffsense

 .subckt diffdrive vp vm vd vc
 e1 vp vc vd 0  0.5
 e2 vm vc vd 0  -0.5
 .ends diffdrive

 .subckt looptest x y ai=0 av=0
 vx middle x  dc 0
 vy middle y  ac 'av'
 it 0 middle  ac 'ai'
 .ends looptest

 .subckt difflooptest xp xm yp ym ai=0 av=0
 vxp middlep xp  dc 0
 vyp middlep yp  ac 'av'
 vxm middlem xm  ac 'av'
 vym middlem ym  dc 0
 it  middlem middlep  ac 'ai'
 .ends difflooptest
 * ee214 design project
 * name 1: joe example
 * name 2: john doe

 ******************************************************
 *test parameters (will be used by testbench ota_test.sp
 ******************************************************
 * capacitor sizes
 .param cs=4p
 .param cl=2p
 *.param cf=2p
 * input common mode
 .param input_common=1.0

 * differential input voltage step
 .param input_diff=0.4
 ******************************************************


 ********************telescopic**********************
 ********************telescopic**********************

 .subckt ota vip vim vop vom vdd 

 *ib
 ib vdd pib 0.2m
 m01 pib pib 0 0 nch214 w=40um l=1.0um
 *rnoi pib 0 0
 *cnoi vdd pib 1
 *2nd branch
 *mbb3 pa vbb1 vdd vdd pch214 w=40um l=0.85um m=5
 mbb1 vbb1 vbb1 vdd vdd pch214 w=40um l=0.85um
 m02 vbb1 pib 0 0 nch214 w=40um l=1.0um m=5

 *3rd branch
 mc2 pb vbias vdd vdd pch214 w=40um l=0.85um m=5
 mc1 vbias vbb1 pb vdd pch214 w=40um l=0.85um m=5
 m03 vbias pib 0 0 nch214 w=40um l=1.0um m=5

 *4th branch
 m3 pc vbias vdd vdd pch214 w=40um l=0.85um m=5
 m3a vop vbb1 pc vdd pch214 w=40um l=0.85um m=5
 m1a vop vbb2 pf 0 nch214 w=38um l=0.65um m=10
 m1 pf vim p 0 nch214 w=40um l=0.65um m=10
 *cpc pc vdd 10p

 *5th branch
 mbb4 pd vbias vdd vdd pch214 w=40um l=0.85um m=2
 mbb2 vbb2 vbb1 pd vdd pch214 w=40um l=0.85um m=2
 mb2 vbb2 vbb2 ph 0 nch214 w=38um l=0.65um m=5
 mb1 ph vbb2 p 0 nch214 w=20um l=0.65um
 m0 p pib 0 0 nch214 w=40um l=1.0um m=12
 *rnoi p 0 0
 *vbb2 vbb2 0 1.0
 *vp p 0 0.3
 *cp p 0 10p

 *6th branch
 m4 pe vbias vdd vdd pch214 w=40um l=0.85um m=5
 m4a vom vbb1 pe vdd pch214 w=40um l=0.85um m=5
 m2a vom vbb2 pg 0 nch214 w=38um l=0.65um m=10
 m2 pg vip p 0 nch214 w=40um l=0.65um m=10
 *cpe pe vdd 10p

 *2rd stage
 * m5 ps1 vbias vdd vdd pch214 w=140um l=0.85um
 * m5a vom vbb1 ps1 vdd pch214 w=140um l=0.85um
 * ms1 vom vom1 0 0 nch214 w=140um l=0.65um

 * m6 ps3 vbias vdd vdd pch214 w=140um l=0.85um
 * m6a vop vbb1 ps3 vdd pch214 w=140um l=0.85um
 * ms2 vop vop1 0 0 nch214 w=140um l=0.65um

 x1 vid voc vop vom diffsense
 v1 vocdes 0 1.5
 g1 0 p vocdes voc  50m

 * ee214 cmos transistor models in hspice format
 * boris murmann 9/6/04
 * channel length  0.35um ... 15um (nmos)
 *		  0.35um ... 15um (pmos)
 * channel width	  >= 1um
 * nominal parameter values:
 * threshold	  0.60v  (nmos)
 *		  0.85v  (pmos)
 * oxide thickness 6.5nm

 .model nch214 nmos level = 49
 + version =  3.11          acm     =  3             hdif    =  0.5e-6
 + mobmod  =  1.000000e+00  capmod  =  1.000000e+00  nqsmod  =  0.000000e+00  
 + tox     =  6.500000e-09  cdsc    =  1.000000e-10  cdscb   =  0.000000e+00  
 + cdscd   =  3.146578e-03  cit     = -1.165567e-03  nfactor =  2.067847e+00  
 + xj      =  2.000000e-07  vsat    =  1.733115e+05  at      =  4.587946e+04  
 + a0      =  1.208623e+00  ags     =  2.664144e-01  a1      =  0.000000e+00  
 + a2      =  3.926521e-01  keta    = -5.969015e-03  nch     =  3.053200e+17  
 + k1      =  7.823191e-01  kt1     = -2.968857e-01  kt1l    =  6.948321e-09  
 + kt2     = -2.439718e-02  k2      = -5.976393e-02  k3      = -2.348052e+00  
 + k3b     = -2.995700e+00  w0      =  0.000000e+00  nlx     =  2.343014e-07  
 + dvt0    =  1.904429e+01  dvt1    =  8.095353e-01  dvt2    =  6.252991e-03  
 + dvt0w   =  0.000000e+00  dvt1w   =  0.000000e+00  dvt2w   =  0.000000e+00  
 + drout   =  5.600000e-01  dsub    =  5.891755e-01  vth0    =  4.452273e-01  
 + ua      = -1.085785e-09  ua1     =  2.451017e-09  ub      =  2.210053e-18  
 + ub1     = -2.617479e-18  uc      =  3.755569e-11  uc1     =  2.640885e-13  
 + u0      =  3.324764e-02  ute     = -1.230449e+00  voff    = -8.793706e-02  
 + delta   =  9.688553e-03  rdsw    =  4.385596e+02  prwg    =  1.000000e-01  
 + prwb    = -7.964250e-02  prt     = -4.162666e+01  eta0    =  1.722893e-01  
 + etab    = -5.113721e-02  pclm    =  9.585992e-01  pdiblc1 =  2.537726e-12  
 + pdiblc2 = -3.312959e-04  pdiblcb = -1.000000e-03  pscbe1  =  5.656369e+08  
 + pscbe2  =  1.000000e-03  pvag    =  1.000001e-12  wr      =  9.107508e-01  
 + dwg     = -7.427878e-09  dwb     = -3.328336e-09  b0      =  1.598826e-07  
 + b1      =  5.141988e-17  alpha0  =  0.000000e+00  beta0   =  3.000000e+01  
 + elm     =  5.000000e+00  cgsl    =  0.000000e+00  cgdl    =  0.000000e+00  
 + ckappa  =  6.000000e-01  cf      =  9.056200e-11  clc     =  1.000000e-07  
 + cle     =  6.000000e-01  tnom    =  2.500000e+01  cgso    =  1.590000e-10  
 + cgdo    =  1.590000e-10  cgbo    =  0.000000e+00  xpart   =  1.000000e+00  
 + rsh     =  0.000000e+00  pb      =  5.112000e-01  mj      =  3.872000e-01  
 + mjsw    =  3.872000e-01  pbsw    =  5.112000e-01  cj      =  8.488000e-04  
 + cjsw    =  4.896000e-10  lint    =  2.345145e-09  ll      =  1.382235e-09  
 + lln     =  2.000000e-01  lw      =  0.000000e+00  lwn     =  0.000000e+00  
 + lwl     =  0.000000e+00  wint    =  1.347400e-07  wl      =  0.000000e+00  
 + wln     =  1.000000e+00  ww      = -7.781819e-14  wwn     =  1.000000e+00  
 + wwl     =  0.000000e+00  nlev    =  2.000000e+00  kf      =  0.500000e-25


 .model pch214 pmos level = 49
 + version =  3.11          acm     =  3             hdif    =  0.5e-6
 + mobmod  =  1.000000e+00  capmod  =  1.000000e+00  nqsmod  =  0.000000e+00  
 + tox     =  6.500000e-09  cdsc    =  1.000000e-10  cdscb   =  0.000000e+00  
 + cdscd   =  0.000000e+00  cit     =  2.849258e-03  nfactor =  0.000000e+00  
 + xj      =  2.000000e-07  vsat    =  1.235253e+05  at      =  0.000000e+00  
 + a0      =  5.534111e-01  ags     =  0.000000e+00  a1      =  0.000000e+00  
 + a2      =  4.000000e-01  keta    = -4.742392e-03  nch     =  1.198869e+17  
 + k1      =  5.036882e-01  kt1     = -4.972940e-01  kt1l    =  0.000000e+00  
 + kt2     = -4.796538e-02  k2      =  1.710970e-02  k3      = -1.532555e+00  
 + k3b     = -1.426295e-01  w0      = -5.128171e-07  nlx     =  1.500000e-07  
 + dvt0    =  1.318457e+00  dvt1    =  2.383284e-01  dvt2    =  0.000000e+00  
 + dvt0w   =  0.000000e+00  dvt1w   =  0.000000e+00  dvt2w   =  0.000000e+00  
 + drout   =  3.972895e-01  dsub    =  4.287821e-01  vth0    = -7.891688e-01  
 + ua      = -7.838913e-10  ua1     =  4.158887e-09  ub      =  1.416209e-18  
 + ub1     = -3.635865e-18  uc      = -3.193134e-11  uc1     =  0.000000e+00  
 + u0      =  8.644306e-03  ute     =  0.000000e+00  voff    = -1.619864e-01  
 + delta   =  1.000000e-02  rdsw    =  1.393589e+03  prwg    = -7.131702e-02  
 + prwb    = -9.573077e-02  prt     =  0.000000e+00  eta0    =  5.324062e-02  
 + etab    =  0.000000e+00  pclm    =  1.294956e+00  pdiblc1 =  1.272241e-02  
 + pdiblc2 =  5.045117e-04  pdiblcb = -8.715370e-03  pscbe1  =  4.803844e+08  
 + pscbe2  =  1.000000e-08  pvag    =  0.000000e+00  wr      =  8.585317e-01  
 + dwg     = -1.637238e-08  dwb     = -3.444345e-09  b0      =  0.000000e+00  
 + b1      =  1.000000e-04  alpha0  =  0.000000e+00  beta0   =  3.000000e+01  
 + elm     =  5.000000e+00  cgsl    =  0.000000e+00  cgdl    =  0.000000e+00  
 + ckappa  =  6.000000e-01  cf      =  9.056200e-11  clc     =  1.000000e-07  
 + cle     =  6.000000e-01  tnom    =  2.500000e+01  cgso    =  4.035600e-10  
 + cgdo    =  4.035600e-10  cgbo    =  0.000000e+00  xpart   =  1.000000e+00  
 + rsh     =  0.000000e+00  pb      =  9.316000e-01  mj      =  4.845000e-01  
 + mjsw    =  4.845000e-01  pbsw    =  9.316000e-01  cj      =  1.117000e-03  
 + cjsw    =  4.764000e-10  lint    =  5.034766e-08  ll      =  4.395297e-17  
 + lln     =  1.370692e+00  lw      =  0.000000e+00  lwn     =  0.000000e+00  
 + lwl     =  0.000000e+00  wint    =  1.924185e-07  wl      =  0.000000e+00  
 + wln     =  1.000000e+00  ww      = -9.207185e-13  wwn     =  8.342567e-01  
 + wwl     =  0.000000e+00  nlev    =  2.000000e+00  kf      =  0.250000e-25



 ***********************************************************************
 ** runlvl is invoked, you can disable it by:
      a) Add option runlvl=0 to your current simulation job.
      b) Copy $installdir/hspice.ini to your HOME directory and
         customize it by adding option runlvl=0, which disables
         it for all of your simulation jobs.
      c) Re-invoke $installdir/bin/config program and unselect the
         option runlvl setting in box 'hspice.ini' which disables
         it for whole group simulation jobs.

 ** runlvl is invoked, some options are ignored or automatically set:
      Options below are automatically set(user setting will overwrite them):
      if runlvl=6,            .option bypass=0
      if runlvl=[1|2|3|4|5],  .option bypass=2

      Options below are ignored, they are replaced by automated algorithms:
        lvltim    dvdt      ft    fast   trtol  absvar  relvar
          relq  chgtol    dvtr    imin    itl3    rmax

 ** runlvl is invoked, actual option value used by HSPICE are:
       runlvl= 6       bypass= 0      mbypass=   2.00   bytol= 100.00u
 ***********************************************************************


 **warning** dc voltage reset to initial transient source value
             in source        0:vsd                 new dc=  0.0000D+00

 

  Opening plot unit= 79
 file=d:\seafile\大三下学期\模拟集成电路\project_telescopic\ota_test.pa0       


 **diagnostic** dc convergence failure, 
 resetting dcon option to 1 and retrying

 **diagnostic** dc convergence successful
 you can increase the efficiency of the
 operating point calculation by setting dcon= 1
 in the .option statement
 ****** HSPICE  --  A-2007.09  32-BIT    (Aug 28 2007) 18:49:19 06/17/2018 winnt
 ******  
 * ee214 design project                                                         
  ******  operating point information      tnom=  25.000 temp=  25.000          
 ******  
 ***** operating point status is all       simulation time is     0.     
    node    =voltage      node    =voltage      node    =voltage

 +0:vdd     =   3.0000  0:voc     =   1.5030  0:vod     = 742.2951f
 +0:vom     =   1.5030  0:vomm    =   1.5030  0:vop     =   1.5030 
 +0:vopp    =   1.5030  0:vsc     =   1.0000  0:vsd     =   0.     
 +0:vsm     =   1.0000  0:vsp     =   1.0000  0:xm      =   1.0000 
 +0:xp      =   1.0000  0:ym      =   1.0000  0:yp      =   1.0000 
 +1:p       = 230.5930m 1:pb      =   2.5769  1:pc      =   2.5740 
 +1:pd      =   2.5727  1:pe      =   2.5740  1:pf      = 467.0464m
 +1:pg      = 467.0464m 1:ph      = 479.3062m 1:pib     = 766.3945m
 +1:vbb1    =   1.3071  1:vbb2    =   1.3004  1:vbias   =   1.8178 
 +1:vid     = 742.2951f 1:voc     =   1.5030  1:vocdes  =   1.5000 
 +3:vminv   =  -1.5030  4:middlem =   1.0000  4:middlep =   1.0000 
 +5:vminv   =  -1.5030 


 ****  voltage sources

 subckt                                                          x1        
 element  0:vdd      0:vsc      0:vmp      0:vmm      0:vsd      1:v1      
  volts      3.0000     1.0000     0.         0.         0.         1.5000 
  current   -4.6337m    0.         0.         0.         0.         0.     
  power     13.9010m    0.         0.         0.         0.         0.     

 subckt   xt         xt         xt         xt        
 element  4:vxp      4:vyp      4:vxm      4:vym     
  volts      0.         0.         0.         0.     
  current    0.         0.         0.         0.     
  power      0.         0.         0.         0.     

     total voltage source power dissipation=   13.9010m       watts



 ***** current sources

 subckt   x1         xt        
 element  1:ib       4:it      
  volts      2.2336     0.     
  current  200.0000u    0.     
  power   -446.7211u    0.     


     total current source power dissipation=-446.7211u       watts

 **** resistors

 subckt                         xs         xs         x1.x1      x1.x1     
 element  0:rs1      0:rs2      3:rdum1    3:rdum2    5:rdum1    5:rdum2   
  r value   10.0000g   10.0000g    1.0000g    1.0000g    1.0000g    1.0000g
  v drop     0.         0.       742.2951f    1.5030   742.2951f    1.5030 
  current    0.         0.       7.423e-22    1.5030n  7.423e-22    1.5030n
  power      0.         0.         0.         2.2590n    0.         2.2590n


 **** voltage-controlled current sources


 subckt     x1      
 element  1:g1      
  v drop  -230.5930m
  current -149.9379u




 **** voltage-controlled voltage sources


 subckt     xd         xd         xs         xs         xs         x1.x1   
 element  2:e1       2:e2       3:e1       3:e2       3:e3       5:e1      
  volts      0.         0.        -1.5030     1.5030   742.2951f   -1.5030 
  current    0.         0.         0.        -1.5030n -7.423e-22    0.     



 subckt     x1.x1      x1.x1   
 element  5:e2       5:e3      
  volts      1.5030   742.2951f
  current   -1.5030n -7.423e-22





 **** mosfets


 subckt   x1         x1         x1         x1         x1         x1        
 element  1:m01      1:mbb1     1:m02      1:mc2      1:mc1      1:m03     
 model    0:nch214   0:pch214   0:nch214   0:pch214   0:pch214   0:nch214  
 region     Saturati   Saturati   Saturati   Saturati   Saturati   Saturati
  id       200.0000u   -1.0054m    1.0054m   -1.0075m   -1.0075m    1.0075m
  ibs        0.         0.         0.         0.         0.         0.     
  ibd        0.         0.         0.         0.         0.         0.     
  vgs      766.3945m   -1.6929   766.3945m   -1.1822    -1.2699   766.3945m
  vds      766.3945m   -1.6929     1.3071  -423.0563m -759.1759m    1.8178 
  vbs        0.         0.         0.         0.       423.0563m    0.     
  vth      529.9571m -793.5007m  529.9298m -795.3465m -896.7593m  529.9040m
  vdsat    191.1050m -770.1862m  191.1231m -374.5711m -371.6315m  191.1402m
  vod      236.4375m -899.4158m  236.4648m -386.8856m -373.1009m  236.4906m
  beta       8.4641m    2.7458m   42.3206m   13.9502m   13.8272m   42.3205m
  gam eff  894.1238m  472.5709m  894.1238m  472.5709m  465.4304m  894.1238m
  gm         1.6023m    1.9746m    8.0642m    4.4701m    4.8390m    8.0828m
  gds        3.5702u   29.0793u    5.6773u  367.7290u   81.8380u    3.0121u
  gmb      516.9308u  490.4240u    2.6014m    1.1419m    1.0502m    2.6073m
  cdtot     61.8900f   70.2804f  276.2588f  447.1544f  379.4237f  255.5416f
  cgtot    182.8384f  157.6035f  914.1927f  787.9939f  783.8108f  914.1933f
  cstot    265.6601f  233.3319f    1.3283p    1.1666p    1.0738p    1.3283p
  cbtot    197.8678f  170.4871f  956.1482f  954.8671f  784.6637f  935.4313f
  cgs      149.1002f  129.4444f  745.4961f  640.5114f  645.9335f  745.4916f
  cgd        9.9080f   19.4068f   49.5398f   97.0341f   97.0401f   49.5398f



 subckt   x1         x1         x1         x1         x1         x1        
 element  1:m3       1:m3a      1:m1a      1:m1       1:mbb4     1:mbb2    
 model    0:pch214   0:pch214   0:nch214   0:nch214   0:pch214   0:pch214  
 region     Saturati   Saturati   Saturati   Saturati   Saturati   Saturati
  id        -1.0086m   -1.0086m    1.0086m    1.0086m -403.6130u -403.6130u
  ibs        0.         0.         0.         0.         0.         0.     
  ibd        0.         0.         0.         0.         0.         0.     
  vgs       -1.1822    -1.2669   833.3926m  769.4070m   -1.1822    -1.2656 
  vds     -426.0381m   -1.0710     1.0360   236.4534m -427.3012m   -1.2723 
  vbs        0.       426.0381m -467.0464m -230.5930m    0.       427.3012m
  vth     -795.3422m -896.9630m  716.9689m  649.6156m -795.3404m -896.9485m
  vdsat   -374.5746m -369.0217m  122.0813m  120.1628m -374.5761m -367.9994m
  vod     -386.8899m -369.9154m  116.4236m  119.7914m -386.8918m -368.6668m
  beta      13.9502m   13.8279m  129.3187m  135.5586m    5.5801m    5.5313m
  gam eff  472.5709m  465.3848m  920.7847m  907.9959m  472.5709m  465.3655m
  gm         4.4818m    4.9143m   13.5794m   13.3225m    1.7947m    1.9761m
  gds      358.2936u   45.3917u   27.0451u  308.3590u  141.7667u   14.0922u
  gmb        1.1448m    1.0651m    3.5079m    3.8290m  458.3795u  428.0061u
  cdtot    446.7826f  361.1122f  508.4160f  675.5014f  178.6502f  140.4366f
  cgtot    787.9939f  783.7853f    1.1345p    1.2009p  315.1975f  313.5098f
  cstot      1.1666p    1.0733p    1.6280p    1.8062p  466.6495f  429.2173f
  cbtot    954.4952f  765.8294f    1.3171p    1.6256p  381.7352f  302.2348f
  cgs      640.5115f  645.9370f  897.6682f  945.8587f  256.2046f  258.3757f
  cgd       97.0341f   97.0402f   93.0340f   98.0317f   38.8136f   38.8161f



 subckt   x1         x1         x1         x1         x1         x1        
 element  1:mb2      1:mb1      1:m0       1:m4       1:m4a      1:m2a     
 model    0:nch214   0:nch214   0:nch214   0:pch214   0:pch214   0:nch214  
 region     Saturati     Linear     Linear   Saturati   Saturati   Saturati
  id       403.6130u  403.6130u    2.2708m   -1.0086m   -1.0086m    1.0086m
  ibs        0.         0.         0.         0.         0.         0.     
  ibd        0.         0.         0.         0.         0.         0.     
  vgs      821.1327m    1.0698   766.3945m   -1.1822    -1.2669   833.3926m
  vds      821.1327m  248.7132m  230.5930m -426.0381m   -1.0710     1.0360 
  vbs     -479.3062m -230.5930m    0.         0.       426.0381m -467.0464m
  vth      720.5551m  649.3615m  529.9841m -795.3422m -896.9630m  716.9689m
  vdsat    112.1524m  306.8233m  191.0870m -374.5746m -369.0217m  122.0813m
  vod      100.5777m  420.4845m  236.4104m -386.8899m -369.9154m  116.4236m
  beta      64.6628m    6.7463m  101.5695m   13.9502m   13.8279m  129.3187m
  gam eff  921.4157m  907.9959m  894.1238m  472.5709m  465.3848m  920.7847m
  gm         5.8870m    1.3710m   17.3353m    4.4818m    4.9143m   13.5794m
  gds       13.9136u  751.7866u    1.3985m  358.2936u   45.3917u   27.0451u
  gmb        1.5161m  391.5032u    5.6119m    1.1448m    1.0651m    3.5079m
  cdtot    262.8850f   33.9832f  888.8117f  446.7826f  361.1122f  508.4160f
  cgtot    561.3154f   60.7598f    2.1941p  787.9939f  783.7853f    1.1345p
  cstot    803.4250f   92.0926f    3.1879p    1.1666p    1.0733p    1.6280p
